! Anritsu VNA Master:                         Model: MS2036C/2
! SN:                                  2120025
! /bd0/ab_7.s2p
! Existing Calibration Information:
! TYPE:                         Current Settings,       Active Cal Settings
! TIME:             	   03/02/2026 03:13:25 AM,    03/02/2026 02:47:23 AM
! INTERNAL TEMP:    	                   54.5 C,                    51.8 C
! # POINTS:         	                      201,                       201
! START FREQ:       	              400.000 MHz,               400.000 MHz
! STOP FREQ:        	                4.500 GHz,                 4.500 GHz
! SOURCE POWER:     	                     High,                      High
! IFBW:             	                   10 kHz,                    10 kHz
! AVG FACTOR:       	                       1 ,                        1 
! REF PLANE 1:      	                     0 mm,                      0 mm
! REF PLANE 2:      	                     0 mm,                      0 mm
! CAL TYPE:         	              Full 2 Port,               Full 2 Port
! CAL METHOD:       	                     SOLT,                      SOLT
! CAL LINE TYPE:    	                     Coax,                      Coax
! DUT PORT 1:       	                N-Conn(M),                 N-Conn(M)
! DUT PORT 2:       	                N-Conn(M),                 N-Conn(M)
! CAL STATUS:       	        OK: Accuracy High,                        --
# GHZ S DB R 50.0
! FREQ.GHZ       S11DB        S11A       S21DB        S21A       S12DB        S12A       S22DB        S22A
  0.400000000   -0.142544  -88.898048  -29.880562   36.514259  -29.667807   35.188812   -0.147144  -89.615417
  0.420500000   -0.163411  -93.494324  -29.306833   29.814516  -29.205739   27.162266   -0.163214  -94.358978
  0.441000000   -0.166265  -98.184074  -29.073192   24.877096  -28.793966   24.653006   -0.159367  -98.934753
  0.461500000   -0.163737 -102.887238  -28.783048   22.875145  -28.944025   23.988472   -0.182309 -103.710304
  0.482000000   -0.184345 -107.642113  -28.264676   24.668621  -28.225174   23.922104   -0.232838 -108.529495
  0.502500000   -0.196860 -112.287537  -27.364073   17.593346  -27.533370   16.539118   -0.247942 -113.297554
  0.523000000   -0.202031 -116.888580  -27.598302   10.939576  -27.436793   12.090492   -0.262790 -118.067009
  0.543500000   -0.217462 -121.762154  -27.618496   10.297758  -27.498008   10.635763   -0.271754 -122.902016
  0.564000000   -0.244840 -126.592735  -27.135760    9.319317  -26.865564   10.406347   -0.275848 -127.762878
  0.584500000   -0.272935 -131.440399  -26.276374    5.423169  -26.509200    4.376770   -0.319164 -132.514572
  0.605000000   -0.281689 -136.200302  -26.287560   -1.601057  -26.518730   -0.602166   -0.325279 -137.329605
  0.625500000   -0.291841 -141.114349  -26.286457   -0.869744  -26.406990   -1.929129   -0.340102 -142.249527
  0.646000000   -0.319288 -146.065552  -25.918452   -4.963067  -25.743698   -6.166273   -0.350028 -147.254715
  0.666500000   -0.330011 -150.941757  -25.966221  -10.347055  -25.845417  -11.786328   -0.371871 -152.080032
  0.687000000   -0.343308 -155.833771  -26.295053  -11.097237  -26.077780  -11.787730   -0.422187 -156.960815
  0.707500000   -0.338952 -160.926407  -25.744977  -12.252129  -25.590235  -12.442827   -0.438773 -161.983307
  0.728000000   -0.360485 -165.827652  -25.350697  -18.552397  -25.267703  -19.884789   -0.456167 -167.135056
  0.748500000   -0.392959 -170.773651  -25.901548  -25.643446  -26.172667  -25.854046   -0.471764 -172.126480
  0.769000000   -0.403227 -175.907745  -26.928915  -23.756441  -27.019964  -23.857029   -0.493311 -177.143234
  0.789500000   -0.413517  179.026794  -26.548089  -23.797634  -26.468226  -24.208942   -0.541088  177.726440
  0.810000000   -0.443306  173.924606  -26.259540  -30.865358  -26.190867  -31.381804   -0.563318  172.402298
  0.830500000   -0.487832  168.718933  -28.350934  -38.028351  -28.029286  -35.722771   -0.605797  166.873779
  0.851000000   -0.503551  163.314117  -30.182250  -27.444765  -30.473514  -28.585997   -0.620862  161.479263
  0.871500000   -0.570387  157.801041  -30.887436  -14.111975  -31.158298  -14.208815   -0.681045  156.152008
  0.892000000   -0.639175  152.100723  -31.993595    3.668037  -31.683153    3.333325   -0.834609  150.168106
  0.912500000   -0.802233  146.058945  -29.643965   36.351536  -29.529383   37.794060   -1.032492  143.738113
  0.933000000   -1.053442  140.017914  -24.214238   52.316223  -24.195197   52.180893   -1.375294  137.225662
  0.953500000   -1.562960  134.602081  -17.973495   47.269222  -18.004599   47.029163   -2.055724  131.947144
  0.974000000   -2.213019  132.877594  -13.761343   19.780254  -13.797457   19.057348   -3.037520  131.848007
  0.994500000   -2.211981  133.583435  -12.788349   -9.971546  -12.915310   -9.909351   -2.976717  135.108673
  1.015000000   -1.708039  130.979523  -13.429002  -27.442530  -13.494128  -26.987234   -2.230320  133.046463
  1.035500000   -1.330262  126.187157  -13.396001  -38.631363  -13.390502  -38.707973   -1.666920  128.120193
  1.056000000   -1.152630  120.562904  -13.739172  -53.167778  -13.815437  -53.373501   -1.352472  122.615227
  1.076500000   -1.061026  115.191315  -14.950022  -61.276531  -15.059971  -60.025391   -1.231502  116.943207
  1.097000000   -0.970319  109.544449  -15.199809  -61.339237  -15.111394  -60.924080   -1.186330  111.001686
  1.117500000   -0.920569  104.245544  -14.455375  -68.195107  -14.441887  -68.343491   -1.082112  105.308655
  1.138000000   -0.907900   98.900154  -14.933955  -79.915596  -15.074759  -79.211929   -1.020561  100.025772
  1.158500000   -0.898425   93.496567  -16.194412  -80.914734  -16.227458  -79.309288   -0.996613   94.879662
  1.179000000   -0.898993   88.216690  -15.579091  -77.140205  -15.473417  -76.897499   -1.031983   89.653923
  1.199500000   -0.897727   82.845177  -14.376563  -85.959366  -14.423079  -86.345421   -1.038744   83.981117
  1.220000000   -0.882537   77.560890  -15.188341  -99.021271  -15.345929  -97.982643   -1.044863   78.343369
  1.240500000   -0.904532   72.268654  -16.629985  -96.998093  -16.609713  -95.415825   -1.017041   73.294174
  1.261000000   -0.931967   66.748283  -15.584785  -91.118279  -15.501798  -91.001732   -1.049758   67.958595
  1.281500000   -0.938209   61.414574  -14.026920 -101.038124  -14.083525 -101.467270   -1.087525   62.388943
  1.302000000   -0.958220   55.965904  -14.880445 -115.897491  -15.080860 -113.254768   -1.150706   56.454327
  1.322500000   -0.996448   50.564857  -16.361916 -112.758881  -16.128693 -110.452011   -1.189632   50.900059
  1.343000000   -1.053825   44.941822  -15.285330 -107.141907  -15.072605 -107.550468   -1.232167   45.330418
  1.363500000   -1.073359   39.197468  -13.894232 -117.351707  -13.979989 -117.628860   -1.295806   39.522770
  1.384000000   -1.145888   33.208443  -14.818176 -130.286194  -14.920167 -128.199310   -1.430921   33.067879
  1.404500000   -1.227172   27.442944  -15.854467 -127.196182  -15.638986 -125.718864   -1.623168   26.244858
  1.425000000   -1.350028   21.128778  -15.000298 -124.764565  -14.843186 -125.964859   -1.877973   19.869795
  1.445500000   -1.492528   14.641664  -14.454803 -133.474014  -14.444174 -134.484314   -2.201568   13.188496
  1.466000000   -1.692901    7.944486  -15.479381 -139.574158  -15.517943 -138.082367   -2.757503    5.803300
  1.486500000   -1.967037    1.028435  -15.909793 -133.184769  -15.664661 -131.782059   -3.655755   -1.452742
  1.507000000   -2.378680   -6.087365  -14.645404 -128.768356  -14.336202 -128.931076   -5.003067   -7.721304
  1.527500000   -2.999945  -13.308502  -13.263105 -131.039490  -13.140314 -133.109344   -6.744148   -8.225714
  1.548000000   -3.802035  -19.974401  -11.996613 -136.120438  -12.148833 -135.779236   -8.033585    0.113702
  1.568500000   -4.797233  -25.533064  -10.645441 -143.280380  -10.351161 -141.441986   -7.856657   10.008033
  1.589000000   -6.036528  -30.122698   -9.237362 -154.088974   -8.848777 -155.852982   -6.972286   13.522295
  1.609500000   -7.557248  -33.236843   -8.399778 -170.077469   -8.652074 -172.082565   -6.185610   11.697005
  1.630000000   -9.485213  -31.070763   -8.684334  174.509125   -8.791385  176.107635   -5.556092    9.225710
  1.650500000  -11.164827  -20.018766   -9.031148  164.513290   -8.742925  164.743759   -5.016949    7.478502
  1.671000000  -11.103841   -1.702431   -8.899679  153.324371   -8.867286  151.395523   -4.533402    5.475860
  1.691500000   -9.268646    8.826975   -9.251639  136.588654   -9.482357  136.371094   -4.085631    2.247397
  1.712000000   -7.261814   10.007390  -10.957044  122.426308  -10.819095  123.939781   -3.545309   -1.976907
  1.732500000   -5.653685    6.173544  -12.499662  117.411758  -12.359607  117.090385   -3.009271   -6.728353
  1.753000000   -4.472952    0.645497  -13.137418  111.091270  -13.141549  109.536568   -2.547338  -11.704669
  1.773500000   -3.667579   -6.076950  -14.197867   99.219254  -14.235790   99.157036   -2.244008  -16.655899
  1.794000000   -3.017426  -12.555874  -16.467854   90.604095  -16.376725   91.399017   -2.012264  -22.733864
  1.814500000   -2.584743  -19.208593  -18.384647   91.585876  -18.179830   90.890617   -1.826860  -28.640278
  1.835000000   -2.244449  -25.310993  -19.476229   90.773094  -19.279963   89.965042   -1.621890  -33.808819
  1.855500000   -1.950328  -31.493469  -20.815070   85.101067  -20.786241   85.318375   -1.450926  -38.816902
  1.876000000   -1.779942  -37.521912  -23.029502   86.019127  -22.994527   85.399879   -1.370034  -44.179657
  1.896500000   -1.632687  -43.164459  -24.600226   92.578781  -24.631381   91.979370   -1.278522  -49.767220
  1.917000000   -1.495355  -48.785755  -25.679230   98.571121  -25.419375   97.233200   -1.254045  -55.136971
  1.937500000   -1.369714  -54.226776  -26.825944  104.559174  -26.606817  104.916405   -1.153096  -59.834385
  1.958000000   -1.317607  -59.491058  -27.517698  113.904015  -27.524190  114.199051   -1.095563  -64.455643
  1.978500000   -1.244066  -64.824165  -27.464444  126.271469  -27.466227  125.728508   -1.103621  -69.663361
  1.999000000   -1.186146  -69.962502  -26.753500  133.145966  -26.855964  132.460480   -1.101334  -74.955772
  2.019500000   -1.114477  -74.780678  -26.082977  138.372620  -26.277341  136.472305   -1.084941  -79.765572
  2.040000000   -1.095377  -79.560875  -25.741984  141.948166  -25.708343  141.234177   -1.033643  -83.910507
  2.060500000   -1.054888  -84.476173  -24.588558  143.658112  -24.700171  143.048248   -1.040991  -88.756905
  2.081000000   -1.029650  -89.318665  -23.871599  143.862137  -23.964884  143.082840   -1.068611  -93.957573
  2.101500000   -1.045748  -93.913353  -23.491310  143.222092  -23.486575  142.984100   -1.044652  -99.053757
  2.122000000   -1.014891  -98.626488  -22.765366  142.714432  -22.724921  142.989731   -1.031603 -103.399910
  2.142500000   -1.016593 -103.287178  -22.120981  140.883057  -22.150568  141.885910   -1.021893 -107.795372
  2.163000000   -1.004423 -108.106789  -21.507864  140.560730  -21.539675  139.856049   -0.996822 -112.137672
  2.183500000   -1.016405 -112.408745  -20.940049  138.364746  -21.068204  137.571915   -1.058052 -117.343498
  2.204000000   -1.020451 -116.982948  -20.627117  136.445755  -20.590804  136.247131   -1.072753 -122.028152
  2.224500000   -1.021016 -121.708305  -20.226203  133.615601  -20.220724  134.025406   -1.071857 -126.515099
  2.245000000   -1.033811 -126.158348  -19.785352  132.389435  -19.775820  131.804108   -1.012893 -130.550858
  2.265500000   -1.034831 -130.681580  -19.295093  128.759232  -19.258972  128.355804   -1.136966 -135.175308
  2.286000000   -1.032602 -134.985901  -19.042116  125.324860  -19.016623  124.960045   -1.202090 -140.558350
  2.306500000   -1.023006 -139.281464  -18.777112  122.913200  -18.706847  122.843330   -1.220715 -145.252792
  2.327000000   -1.105279 -143.843491  -18.296578  120.835541  -18.249883  121.012482   -1.178923 -149.467209
  2.347500000   -1.091725 -148.110992  -17.809693  116.708099  -17.842300  116.737183   -1.207250 -153.381470
  2.368000000   -1.117386 -152.592270  -17.699588  112.416695  -17.736384  112.714371   -1.285605 -158.235901
  2.388500000   -1.158389 -156.821350  -17.557494  112.046410  -17.514131  111.634026   -1.354328 -163.229507
  2.409000000   -1.196026 -161.569473  -16.760190  109.967522  -16.898205  109.649933   -1.365125 -168.086044
  2.429500000   -1.224732 -165.797638  -16.283296  104.085793  -16.549750  103.809204   -1.330270 -171.915787
  2.450000000   -1.235184 -170.245575  -16.342495  100.023331  -16.438405   99.854645   -1.351439 -175.855865
  2.470500000   -1.297464 -174.345840  -16.270554  100.138008  -16.233565   99.042160   -1.485857  179.073257
  2.491000000   -1.367687 -178.707672  -15.450675   97.310562  -15.505761   96.212006   -1.612571  173.850739
  2.511500000   -1.409032  176.882339  -15.071967   89.845528  -15.233842   89.892563   -1.612661  169.317749
  2.532000000   -1.456334  172.748520  -15.313296   85.748222  -15.378860   86.463478   -1.597866  165.607407
  2.552500000   -1.504006  168.342270  -15.091893   86.186890  -14.998700   86.624527   -1.710045  161.212631
  2.573000000   -1.589410  164.040710  -14.050557   82.918365  -14.015857   81.741516   -1.894040  155.933441
  2.593500000   -1.666257  159.762131  -13.709717   74.160904  -13.971060   73.755714   -2.052495  150.748917
  2.614000000   -1.773775  155.317810  -14.078486   69.463188  -14.292403   70.706139   -2.069862  146.393463
  2.634500000   -1.833647  151.143951  -13.792978   69.882462  -13.724370   71.176468   -2.120376  142.617813
  2.655000000   -1.956448  146.834930  -12.705664   65.491364  -12.740592   64.755989   -2.348995  138.225815
  2.675500000   -2.098758  142.677322  -12.528986   56.254532  -12.795155   55.989498   -2.572357  132.787781
  2.696000000   -2.167581  138.317139  -12.939397   52.474022  -13.243746   53.218964   -2.727117  127.762360
  2.716500000   -2.329993  134.164108  -12.499374   52.493145  -12.527586   53.495907   -2.842726  123.987289
  2.737000000   -2.473282  130.370422  -11.502990   46.072090  -11.467114   45.522888   -3.031642  120.731049
  2.757500000   -2.684571  126.361794  -11.518778   36.271286  -11.694858   36.212601   -3.329746  116.296661
  2.778000000   -2.850471  122.429474  -11.906530   32.377338  -12.162733   33.586159   -3.703365  111.012657
  2.798500000   -3.040234  118.674782  -11.460141   31.073856  -11.402645   32.595230   -3.946403  107.021996
  2.819000000   -3.227568  115.296555  -10.645287   23.216581  -10.537645   22.720379   -4.101481  103.976097
  2.839500000   -3.414567  112.159599  -10.807951   13.024116  -11.015055   12.884715   -4.384478  101.393867
  2.860000000   -3.593712  109.132996  -11.284109    9.244393  -11.489084   10.932666   -4.755600   98.034912
  2.880500000   -3.740759  105.827759  -10.916254    6.767624  -10.796968    8.772268   -5.052389   94.226051
  2.901000000   -3.888232  103.123344  -10.340940   -1.936254  -10.189046   -2.259219   -5.163084   91.456940
  2.921500000   -3.982089  100.363152  -10.713538  -11.424406  -10.890538  -11.769579   -5.226200   90.322495
  2.942000000   -4.096274   98.050476  -11.271267  -15.422219  -11.427995  -13.379267   -5.369627   88.666046
  2.962500000   -4.074805   94.876854  -11.039758  -18.785152  -10.790644  -16.281725   -5.482656   85.874168
  2.983000000   -4.097777   91.816536  -10.744374  -26.887182  -10.400309  -27.602741   -5.593713   82.231194
  3.003500000   -4.043294   88.734192  -11.307846  -35.474308  -11.449346  -36.030647   -5.552260   79.031624
  3.024000000   -4.071289   85.814629  -11.880831  -38.643959  -12.058398  -36.567001   -5.359049   77.807549
  3.044500000   -3.982339   82.248260  -11.752908  -42.797359  -11.296969  -39.306015   -5.386312   75.358574
  3.065000000   -3.934019   79.191666  -11.798020  -51.295643  -11.176142  -52.591202   -5.400180   71.335793
  3.085500000   -3.926071   75.583908  -12.486601  -57.984821  -12.564225  -59.175339   -5.401239   66.215248
  3.106000000   -3.852395   71.929131  -13.019651  -59.287476  -13.182790  -56.894081   -5.160300   63.169968
  3.126500000   -3.802494   68.317482  -12.692430  -64.462715  -12.165939  -60.466755   -4.972961   61.058456
  3.147000000   -3.756782   64.147072  -12.991389  -73.283615  -12.206133  -73.940605   -5.035281   57.433743
  3.167500000   -3.701359   59.905350  -14.048049  -78.193932  -14.107389  -80.870392   -5.044195   52.138767
  3.188000000   -3.722512   55.649242  -14.288246  -76.726257  -14.484490  -75.596138   -4.946217   46.828209
  3.208500000   -3.696524   51.181087  -13.694714  -82.629158  -13.337510  -79.017426   -4.776530   42.768406
  3.229000000   -3.643848   46.709469  -14.255050  -94.520012  -13.453445  -93.992760   -4.603404   39.809521
  3.249500000   -3.647948   42.335007  -15.674010  -96.908134  -15.350761 -100.761711   -4.687591   35.547665
  3.270000000   -3.612087   37.669495  -15.866671  -93.746346  -15.905888  -94.748428   -4.768481   29.378304
  3.290500000   -3.658843   32.680256  -14.764039  -99.406593  -14.546817  -96.561905   -4.651207   23.019127
  3.311000000   -3.652864   28.311754  -15.259579 -112.821701  -14.607523 -111.611374   -4.448381   18.861961
  3.331500000   -3.731204   23.220901  -17.073985 -116.099869  -16.499454 -118.358452   -4.408271   14.849937
  3.352000000   -3.719024   18.199799  -16.830439 -112.289146  -16.908130 -113.741982   -4.530030    9.721606
  3.372500000   -3.770732   12.758596  -15.968835 -119.434753  -15.885160 -117.117226   -4.661682    2.260209
  3.393000000   -3.843370    7.803601  -16.545406 -134.026047  -16.073982 -132.504608   -4.481463   -4.086595
  3.413500000   -4.024788    2.498802  -18.447796 -136.074707  -17.953077 -138.697205   -4.339654   -8.242332
  3.434000000   -4.064295   -2.749707  -18.494919 -132.164856  -18.395595 -136.162643   -4.419238  -11.975350
  3.454500000   -4.197841   -8.205730  -17.733189 -140.908325  -17.654117 -140.366013   -4.714920  -19.211090
  3.475000000   -4.324961  -13.837307  -18.201026 -155.318146  -18.069097 -155.612396   -4.839556  -26.606741
  3.495500000   -4.436566  -19.051805  -20.035042 -159.928421  -19.733861 -162.838684   -4.701167  -32.905033
  3.516000000   -4.670555  -25.032278  -20.585753 -160.472229  -20.252756 -164.688446   -4.655097  -36.609482
  3.536500000   -4.846068  -30.521503  -19.977994 -169.770905  -20.069507 -171.791779   -4.799043  -41.436481
  3.557000000   -4.997309  -36.022118  -21.309387  177.479889  -21.063865  174.401749   -5.194006  -49.114780
  3.577500000   -5.228776  -41.366974  -22.954581  169.273285  -22.649577  169.041779   -5.251578  -57.252926
  3.598000000   -5.449747  -46.679188  -23.577215  163.061081  -23.786192  162.457901   -4.967893  -62.317417
  3.618500000   -5.665606  -52.178665  -23.858363  150.458023  -23.909815  150.567612   -4.970273  -66.052338
  3.639000000   -5.956230  -57.517685  -25.556489  137.382950  -25.684630  135.305969   -5.433014  -72.023582
  3.659500000   -6.152426  -62.539051  -27.539700  119.030716  -27.487664  123.591225   -5.704762  -80.327080
  3.680000000   -6.355645  -67.393677  -29.583846  109.753487  -28.453738  105.818817   -5.569464  -87.750885
  3.700500000   -6.633595  -72.598442  -28.245394   77.691307  -28.954192   85.699005   -5.342552  -91.875214
  3.721000000   -6.782869  -77.905655  -29.488021   52.667637  -29.649212   55.604263   -5.358580  -95.407997
  3.741500000   -6.845553  -82.717178  -29.112116   32.744495  -29.484346   29.857592   -5.751866 -101.453827
  3.762000000   -6.972251  -87.492928  -27.859469   16.555277  -27.914101   15.178329   -6.098374 -110.517921
  3.782500000   -7.143719  -92.506668  -26.226182   -1.300207  -26.536378   -2.665339   -5.755795 -117.094193
  3.803000000   -7.174153  -97.052750  -25.095557  -17.604031  -25.299942  -14.722025   -5.459255 -120.614380
