! Anritsu VNA Master:                         Model: MS2036C/2
! SN:                                  2120025
! /bd0/ab_14.s2p
! Existing Calibration Information:
! TYPE:                         Current Settings,       Active Cal Settings
! TIME:             	   03/02/2026 03:45:46 AM,    03/02/2026 02:47:23 AM
! INTERNAL TEMP:    	                   56.5 C,                    51.8 C
! # POINTS:         	                      201,                       201
! START FREQ:       	              400.000 MHz,               400.000 MHz
! STOP FREQ:        	                4.500 GHz,                 4.500 GHz
! SOURCE POWER:     	                     High,                      High
! IFBW:             	                   10 kHz,                    10 kHz
! AVG FACTOR:       	                       1 ,                        1 
! REF PLANE 1:      	                     0 mm,                      0 mm
! REF PLANE 2:      	                     0 mm,                      0 mm
! CAL TYPE:         	              Full 2 Port,               Full 2 Port
! CAL METHOD:       	                     SOLT,                      SOLT
! CAL LINE TYPE:    	                     Coax,                      Coax
! DUT PORT 1:       	                N-Conn(M),                 N-Conn(M)
! DUT PORT 2:       	                N-Conn(M),                 N-Conn(M)
! CAL STATUS:       	        OK: Accuracy High,                        --
# GHZ S DB R 50.0
! FREQ.GHZ       S11DB        S11A       S21DB        S21A       S12DB        S12A       S22DB        S22A
  0.400000000   -0.233771  -88.530731  -18.267533   34.838638  -18.298331   34.091507   -0.237386  -89.835144
  0.420500000   -0.259418  -93.170959  -17.534935   29.623217  -17.616856   28.547468   -0.258205  -94.619606
  0.441000000   -0.262840  -97.784004  -17.441084   23.720833  -17.415998   23.700193   -0.264680  -99.221619
  0.461500000   -0.271120 -102.423775  -17.390150   23.583252  -17.334476   22.876640   -0.311519 -104.144302
  0.482000000   -0.316659 -107.287254  -16.356794   23.678680  -16.348148   23.220747   -0.362730 -109.278419
  0.502500000   -0.339501 -111.949951  -15.527510   16.709703  -15.438797   16.451313   -0.411055 -114.202927
  0.523000000   -0.360308 -116.491447  -15.399906   10.511918  -15.414654   10.362182   -0.437044 -118.874809
  0.543500000   -0.392613 -121.190338  -15.510012    9.452840  -15.383579    9.159885   -0.462017 -123.757729
  0.564000000   -0.427258 -126.029930  -14.735293    9.216514  -14.623432    8.148820   -0.508503 -128.864380
  0.584500000   -0.482417 -131.116989  -13.962258    3.192940  -14.012043    2.507497   -0.566048 -133.989548
  0.605000000   -0.525021 -135.779892  -13.860130   -1.914858  -13.877501   -1.949527   -0.598678 -138.936218
  0.625500000   -0.592164 -140.737152  -13.469162   -3.988169  -13.403334   -3.845524   -0.619173 -143.771698
  0.646000000   -0.658663 -145.663559  -12.846806   -8.072155  -12.772840   -8.657180   -0.689000 -149.134766
  0.666500000   -0.705557 -150.414459  -12.714987  -13.392450  -12.696730  -14.524157   -0.761475 -154.246674
  0.687000000   -0.695954 -155.209213  -12.746838  -15.154175  -12.709664  -15.255330   -0.822893 -159.187057
  0.707500000   -0.728518 -160.334274  -11.891561  -16.451002  -11.825604  -16.289471   -0.874613 -164.530289
  0.728000000   -0.795434 -165.472595  -11.155500  -24.145987  -11.047072  -24.225416   -0.968688 -169.897736
  0.748500000   -0.899409 -170.669678  -11.487698  -30.607771  -11.347324  -31.614029   -1.048031 -175.243744
  0.769000000   -0.937494 -175.578369  -11.574384  -29.929844  -11.534372  -30.558058   -1.119890  179.469620
  0.789500000   -1.008167  179.448380  -10.410313  -30.532574  -10.429750  -30.935350   -1.216268  174.079590
  0.810000000   -1.088586  174.337082   -9.637063  -40.755116   -9.549875  -40.785877   -1.305784  168.773605
  0.830500000   -1.186282  169.187836  -10.251427  -48.661503  -10.104070  -48.878933   -1.394801  163.558929
  0.851000000   -1.246072  163.685135  -10.623653  -46.224117  -10.501622  -46.991756   -1.426989  157.837402
  0.871500000   -1.375180  158.443497   -9.279161  -45.886868   -9.319196  -46.342258   -1.526654  152.120911
  0.892000000   -1.500526  152.921036   -8.279681  -57.069313   -8.281430  -56.771927   -1.718265  146.252945
  0.912500000   -1.635947  147.567108   -8.982244  -65.947586   -8.865815  -66.038528   -1.901854  140.696716
  0.933000000   -1.774348  141.832092   -9.406450  -64.493416   -9.256708  -65.083427   -2.028667  134.822784
  0.953500000   -1.908433  135.937210   -8.300854  -64.891541   -8.266009  -65.584282   -2.213935  128.928299
  0.974000000   -2.146178  129.613037   -7.664686  -74.900658   -7.621021  -74.850311   -2.497396  122.427422
  0.994500000   -2.545170  122.781929   -8.293789  -80.515640   -8.213606  -80.441139   -3.003170  115.810280
  1.015000000   -3.198957  117.263458   -8.129598  -77.229301   -8.063853  -77.417412   -3.674441  110.354660
  1.035500000   -3.706710  114.199463   -6.432694  -81.049034   -6.382214  -80.933533   -4.036564  107.938019
  1.056000000   -4.029976  110.573013   -5.837881  -92.956238   -5.835234  -92.628067   -4.285966  103.756416
  1.076500000   -4.369526  105.788315   -6.057464  -99.525940   -6.037027  -98.824409   -4.635998   98.811050
  1.097000000   -4.847580  100.187294   -5.487372 -103.067169   -5.424280 -102.493813   -5.069395   93.050529
  1.117500000   -5.567652   94.957512   -4.553618 -112.591461   -4.502455 -112.115349   -5.716512   87.523300
  1.138000000   -6.677152   91.361588   -4.569183 -124.622078   -4.486582 -123.766541   -6.753219   84.010574
  1.158500000   -8.024520   90.615448   -4.676187 -131.745529   -4.655627 -131.225769   -8.092845   83.663300
  1.179000000   -9.404178   95.604927   -4.290078 -139.429459   -4.277936 -139.316071   -9.314861   88.433823
  1.199500000  -10.100945  106.088455   -3.876156 -151.971527   -3.892902 -151.776337   -9.875504   97.851021
  1.220000000   -9.105229  120.313728   -4.200862 -168.586197   -4.220102 -167.529007   -8.867723  110.681259
  1.240500000   -7.111800  124.334198   -5.669517  177.773666   -5.558179  178.385254   -7.017044  113.949020
  1.261000000   -5.166865  121.586067   -7.028905  171.656021   -7.003159  171.255646   -5.171325  111.108223
  1.281500000   -3.818623  114.470390   -7.348358  162.933609   -7.491000  163.012344   -3.853068  103.562454
  1.302000000   -2.834101  106.813805   -8.667056  144.836868   -8.814696  146.529282   -2.881754   95.785378
  1.322500000   -2.193307   98.869537  -12.224496  135.877914  -12.092119  137.322876   -2.215169   87.710381
  1.343000000   -1.743347   90.746758  -14.509552  140.642761  -14.456322  140.773560   -1.780824   79.658257
  1.363500000   -1.461656   82.729088  -15.453531  137.511871  -15.676137  137.918350   -1.462444   71.668610
  1.384000000   -1.240274   75.225754  -18.439288  127.628929  -18.697529  130.047653   -1.251047   64.334579
  1.404500000   -1.104803   68.157967  -23.541556  136.851059  -23.481248  139.649979   -1.075888   57.614277
  1.425000000   -1.037168   61.541153  -26.665425  170.552734  -26.358291  171.228394   -1.003057   50.823105
  1.445500000   -1.019598   54.680374  -25.203966 -158.247803  -25.303798 -158.801224   -0.959597   44.024071
  1.466000000   -0.964574   48.055588  -23.338099 -145.552826  -23.499022 -144.022980   -0.894588   37.318436
  1.486500000   -0.983076   41.980370  -21.854410 -134.117218  -21.724042 -132.133850   -0.888862   31.094507
  1.507000000   -0.993198   35.946854  -19.170338 -126.640945  -18.899168 -126.014000   -0.941908   25.136244
  1.527500000   -1.097692   30.041258  -16.924409 -130.390305  -16.810395 -131.071472   -1.002175   19.088346
  1.548000000   -1.189308   24.382538  -16.346152 -135.818573  -16.257491 -134.430176   -1.028203   13.064089
  1.568500000   -1.253545   19.259405  -15.299246 -132.850052  -15.118971 -131.377808   -1.038494    7.163396
  1.589000000   -1.268146   14.121969  -13.266674 -135.086594  -13.126699 -134.607941   -1.117337    1.922755
  1.609500000   -1.275809    8.624090  -12.069955 -145.885696  -12.009755 -145.979965   -1.197321   -3.644847
  1.630000000   -1.331602    2.798208  -12.444536 -152.098785  -12.404403 -151.879578   -1.211776   -9.429898
  1.650500000   -1.355837   -3.139141  -11.796652 -150.002396  -11.747720 -149.671631   -1.262804  -15.059833
  1.671000000   -1.464869   -8.528244  -10.280242 -154.575912  -10.220966 -154.303391   -1.350387  -20.304167
  1.691500000   -1.570197  -14.276767   -9.714633 -165.776642   -9.612438 -166.072998   -1.504929  -25.814259
  1.712000000   -1.702932  -20.095079  -10.330983 -170.195084  -10.202145 -170.915634   -1.677404  -31.314928
  1.732500000   -1.864679  -25.610640   -9.769637 -169.266098   -9.641651 -170.174225   -1.820488  -36.843910
  1.753000000   -2.054032  -30.862732   -8.493869 -175.187698   -8.458088 -176.159058   -2.034418  -42.146496
  1.773500000   -2.277127  -36.181725   -8.237960  173.652496   -8.187969  172.742233   -2.280255  -47.255680
  1.794000000   -2.521072  -41.074657   -8.786274  168.186646   -8.721776  167.932678   -2.561107  -51.739548
  1.814500000   -2.745038  -45.610641   -8.540880  167.159470   -8.380079  166.892319   -2.779551  -56.147991
  1.835000000   -2.924150  -49.909660   -7.844837  161.506577   -7.820071  160.894394   -2.955840  -60.723278
  1.855500000   -3.116406  -54.585537   -7.736439  153.901382   -7.764905  153.433319   -3.109082  -65.274765
  1.876000000   -3.326304  -59.865501   -7.926087  150.017914   -7.882895  150.212341   -3.287108  -69.951302
  1.896500000   -3.633530  -65.393143   -7.447125  147.603989   -7.401260  147.415512   -3.541748  -74.867058
  1.917000000   -3.981578  -70.033203   -6.847449  141.528305   -6.841335  140.790176   -3.948818  -79.386993
  1.937500000   -4.504345  -74.189690   -6.565885  133.759995   -6.644283  133.447525   -4.419779  -83.364601
  1.958000000   -5.059184  -77.770477   -6.500374  127.441277   -6.561456  127.393013   -4.957968  -86.499619
  1.978500000   -5.620857  -80.228287   -6.260548  120.856987   -6.254434  120.582069   -5.540641  -88.651863
  1.999000000   -6.175266  -81.351051   -6.153455  112.656349   -6.106097  112.017014   -6.072411  -89.159966
  2.019500000   -6.599732  -80.734665   -6.174710  104.042839   -6.175640  103.905159   -6.477912  -88.348495
  2.040000000   -6.817539  -79.340866   -6.340503   95.867645   -6.315421   95.702110   -6.638966  -86.825523
  2.060500000   -6.752847  -77.464607   -6.561351   87.539940   -6.495770   87.488495   -6.408191  -85.404991
  2.081000000   -6.343045  -76.026093   -6.888694   78.674362   -6.871620   78.552155   -5.939339  -84.222466
  2.101500000   -5.731829  -75.986176   -7.482353   69.995239   -7.455613   70.138268   -5.306879  -84.308189
  2.122000000   -5.051903  -77.462288   -8.175748   62.249428   -8.148152   62.313435   -4.657441  -86.854233
  2.142500000   -4.389421  -80.893539   -8.840661   54.969299   -8.920471   54.782013   -4.013421  -90.308784
  2.163000000   -3.745499  -84.928864   -9.744798   47.726181   -9.826613   47.583031   -3.393106  -94.897942
  2.183500000   -3.222215  -89.624344  -10.733337   41.622246  -10.763886   41.226406   -2.920821  -99.142426
  2.204000000   -2.784450  -94.931129  -11.790567   35.926201  -11.911545   35.926559   -2.563672 -103.792915
  2.224500000   -2.452722 -100.453003  -13.052715   31.154524  -13.085315   30.831091   -2.298292 -109.264496
  2.245000000   -2.133347 -106.206154  -14.227664   27.383177  -14.362488   27.274120   -2.068444 -115.040451
  2.265500000   -1.915341 -111.828072  -15.559428   23.228497  -15.645703   23.221119   -1.856405 -120.625458
  2.286000000   -1.759972 -117.283394  -17.110251   20.452654  -17.136394   20.438789   -1.703123 -125.501190
  2.306500000   -1.565202 -122.732117  -18.773579   19.833263  -18.859141   19.933823   -1.601398 -130.766327
  2.327000000   -1.481627 -128.053101  -20.209012   21.577345  -20.271543   21.268042   -1.492323 -136.038589
  2.347500000   -1.374173 -133.533554  -21.845113   23.319681  -21.909168   23.654963   -1.440445 -141.412186
  2.368000000   -1.312987 -138.792038  -23.751306   28.794666  -23.819106   28.112545   -1.360538 -146.505600
  2.388500000   -1.248726 -143.997116  -25.474147   39.798424  -25.340214   40.004066   -1.337679 -151.110687
  2.409000000   -1.233284 -149.215683  -25.578670   55.714211  -25.849119   54.748810   -1.312919 -155.847595
  2.429500000   -1.199732 -154.630325  -25.514715   66.848991  -25.754541   64.903084   -1.239749 -160.796799
  2.450000000   -1.159876 -159.609726  -25.168010   75.341225  -25.161552   76.210197   -1.194735 -165.469650
  2.470500000   -1.163142 -164.521317  -24.687578   86.434624  -24.526754   85.681168   -1.252803 -169.939148
  2.491000000   -1.198008 -169.358887  -22.900167   91.756798  -23.050192   90.829239   -1.289020 -174.576157
  2.511500000   -1.177472 -174.506638  -21.506963   90.214783  -21.788621   90.130348   -1.327075 -179.399765
  2.532000000   -1.134803 -179.053650  -21.278005   89.921219  -21.427700   90.563004   -1.310737  175.968231
  2.552500000   -1.183977  176.172928  -20.730891   93.412575  -20.589768   94.579041   -1.332508  171.377304
  2.573000000   -1.226046  171.566925  -19.270318   94.132179  -19.199986   92.790268   -1.364779  166.657196
  2.593500000   -1.269084  166.980606  -18.381700   86.973732  -18.655832   86.474174   -1.468392  162.318756
  2.614000000   -1.306157  162.548676  -18.604992   82.717422  -18.784606   83.743668   -1.531921  158.243713
  2.634500000   -1.280704  158.194382  -18.639820   85.329399  -18.562336   87.795609   -1.477811  154.426041
  2.655000000   -1.269139  153.578812  -17.584828   87.456055  -17.444872   86.989655   -1.409519  149.565918
  2.675500000   -1.325810  148.837494  -16.972509   81.246445  -17.322971   81.034187   -1.450464  145.695984
  2.696000000   -1.337922  143.678864  -17.141041   80.073364  -17.482749   81.363052   -1.447863  141.182938
  2.716500000   -1.334512  139.245895  -16.675961   83.645096  -16.575964   84.915108   -1.508803  136.780853
  2.737000000   -1.363798  135.037445  -15.304669   81.388824  -15.269437   79.785431   -1.540612  132.005890
  2.757500000   -1.448059  130.335083  -15.175766   73.060783  -15.394291   72.493408   -1.582230  127.490852
  2.778000000   -1.457917  125.731773  -15.634147   71.616096  -15.862802   73.877495   -1.674716  123.141205
  2.798500000   -1.498135  121.123146  -15.061961   75.483231  -14.859147   77.334068   -1.741014  118.838409
  2.819000000   -1.561205  116.648720  -13.724284   70.501045  -13.643786   70.028717   -1.800645  114.113525
  2.839500000   -1.624823  112.243996  -13.787149   62.643250  -14.135622   62.440067   -1.857142  109.234184
  2.860000000   -1.700717  107.785583  -14.426284   62.317848  -14.565172   65.266403   -1.850439  104.568771
  2.880500000   -1.802660  103.097488  -13.690970   65.972679  -13.371796   67.999207   -1.965377  100.438560
  2.901000000   -1.882708   98.534943  -12.555011   60.676353  -12.390667   59.635830   -2.067658   96.208015
  2.921500000   -1.998024   93.960068  -12.686584   53.175327  -12.925493   53.468243   -2.172154   91.571060
  2.942000000   -2.110410   89.969933  -12.985050   54.394218  -13.184281   57.318886   -2.261586   86.679886
  2.962500000   -2.253374   85.312202  -12.214479   56.629097  -11.750681   58.477005   -2.373209   82.297256
  2.983000000   -2.329317   81.000404  -11.198127   50.741966  -10.884199   49.350773   -2.489903   78.648460
  3.003500000   -2.455547   76.773338  -11.274728   44.546577  -11.365990   44.778542   -2.660024   74.041908
  3.024000000   -2.576145   73.300171  -11.193178   45.619690  -11.265734   48.411720   -2.848727   69.510666
  3.044500000   -2.697194   69.604225  -10.170604   43.075562   -9.538461   46.040234   -2.906868   65.388123
  3.065000000   -2.757983   65.715317   -9.609116   35.246334   -9.027389   33.359844   -2.915976   61.260780
  3.085500000   -2.761462   61.747902   -9.817175   30.706989   -9.977769   28.576622   -3.037781   57.331570
  3.106000000   -2.799729   57.710773   -9.445048   30.086458   -9.554897   32.969250   -3.088679   52.795658
  3.126500000   -2.787689   53.529781   -8.389362   24.506750   -7.874263   27.196590   -3.213002   47.722027
  3.147000000   -2.962867   49.016769   -8.571156   14.401712   -7.783675   12.685396   -3.227676   42.217083
  3.167500000   -2.995097   44.328224   -9.270973   12.331089   -9.230178    9.171323   -3.307720   37.861267
  3.188000000   -3.155897   40.021290   -8.599407   14.663853   -8.800013   15.391890   -3.440224   33.141232
  3.208500000   -3.243950   35.851196   -7.425764    6.210439   -6.948636    9.055925   -3.559004   28.721102
  3.229000000   -3.435587   31.582073   -7.923427   -5.413378   -7.182041   -6.643631   -3.811077   23.176598
  3.249500000   -3.521517   27.061737   -9.140873   -5.517107   -8.732255   -9.443428   -3.910570   18.393538
  3.270000000   -3.630866   23.192842   -8.321393   -1.773239   -8.489075   -3.039632   -4.078318   13.797405
  3.290500000   -3.712418   19.072140   -7.046255  -10.644879   -6.765738   -9.272845   -4.231735    9.411373
  3.311000000   -3.929943   15.595603   -7.639961  -23.497400   -6.880159  -23.771889   -4.481899    4.404395
  3.331500000   -4.020819   11.560802   -8.938941  -23.135656   -8.516689  -27.417500   -4.556726   -0.563881
  3.352000000   -4.136413    7.751401   -8.339837  -19.140951   -8.539152  -22.068232   -4.705548   -5.643373
  3.372500000   -4.133492    3.943993   -7.190865  -27.602535   -7.163321  -25.756567   -4.772967   -9.825994
  3.393000000   -4.297585    0.217375   -7.824456  -39.071384   -7.255038  -38.496609   -4.927297  -14.076530
  3.413500000   -4.331779   -3.157413   -9.049416  -38.795803   -8.726579  -42.498047   -4.960701  -19.066347
  3.434000000   -4.337756   -7.661038   -8.726068  -35.276062   -8.874014  -38.399887   -5.122120  -24.465778
  3.454500000   -4.296204  -11.607100   -7.709307  -41.770092   -7.915975  -40.782467   -4.922572  -29.857809
  3.475000000   -4.336381  -15.701908   -8.286107  -51.739689   -8.017654  -50.733067   -4.985120  -34.471401
  3.495500000   -4.240625  -19.710871   -9.363907  -51.011803   -9.118683  -53.455578   -4.968917  -40.197773
  3.516000000   -4.211476  -24.613228   -9.091347  -47.429958   -9.235809  -49.538849   -5.054887  -46.558048
  3.536500000   -4.075088  -29.677599   -8.220501  -51.664360   -8.434380  -51.371620   -4.909664  -53.567379
  3.557000000   -4.016278  -34.376114   -8.728507  -59.213131   -8.429361  -57.987488   -4.937749  -59.791512
  3.577500000   -3.898581  -38.910912   -9.303953  -56.685535   -9.160435  -59.106068   -4.878188  -66.175308
  3.598000000   -3.931432  -44.596230   -8.723902  -55.110794   -8.855349  -56.436611   -4.933586  -73.136307
  3.618500000   -3.878510  -50.604740   -7.925203  -60.916012   -7.961693  -59.097015   -4.918455  -80.513077
  3.639000000   -3.899532  -56.111412   -8.318000  -66.920006   -8.023227  -65.573631   -5.019204  -88.125114
  3.659500000   -3.843499  -61.571579   -8.593559  -65.271927   -8.540619  -66.387161   -4.945207  -95.064125
  3.680000000   -3.984636  -68.399521   -7.703094  -64.911560   -8.100639  -65.020592   -5.116211 -101.680695
  3.700500000   -4.053704  -74.330269   -7.043974  -71.460434   -7.250750  -69.488228   -5.295554 -109.735954
  3.721000000   -4.147550  -80.977394   -7.326130  -77.814682   -7.171704  -76.338501   -5.365297 -117.636856
  3.741500000   -4.208965  -87.168686   -7.493893  -77.743759   -7.555642  -78.555618   -5.352631 -124.648506
  3.762000000   -4.343402  -93.311546   -6.726426  -78.769829   -7.230928  -78.504478   -5.538650 -131.796997
  3.782500000   -4.478663  -99.880760   -6.052829  -85.330841   -6.314830  -82.553467   -5.609855 -138.500534
  3.803000000   -4.603272 -106.287971   -6.310041  -92.176689   -6.133201  -90.382248   -5.768601 -146.115799
