! Anritsu VNA Master:                         Model: MS2036C/2
! SN:                                  2120025
! /bd0/ab_4.s2p
! Existing Calibration Information:
! TYPE:                         Current Settings,       Active Cal Settings
! TIME:             	   03/02/2026 02:57:16 AM,    03/02/2026 02:47:23 AM
! INTERNAL TEMP:    	                   53.3 C,                    51.8 C
! # POINTS:         	                      201,                       201
! START FREQ:       	              400.000 MHz,               400.000 MHz
! STOP FREQ:        	                4.500 GHz,                 4.500 GHz
! SOURCE POWER:     	                     High,                      High
! IFBW:             	                   10 kHz,                    10 kHz
! AVG FACTOR:       	                       1 ,                        1 
! REF PLANE 1:      	                     0 mm,                      0 mm
! REF PLANE 2:      	                     0 mm,                      0 mm
! CAL TYPE:         	              Full 2 Port,               Full 2 Port
! CAL METHOD:       	                     SOLT,                      SOLT
! CAL LINE TYPE:    	                     Coax,                      Coax
! DUT PORT 1:       	                N-Conn(M),                 N-Conn(M)
! DUT PORT 2:       	                N-Conn(M),                 N-Conn(M)
! CAL STATUS:       	        OK: Accuracy High,                        --
# GHZ S DB R 50.0
! FREQ.GHZ       S11DB        S11A       S21DB        S21A       S12DB        S12A       S22DB        S22A
  0.400000000   -0.123731  -88.707237  -29.647379   35.554340  -29.614563   36.323963   -0.144275  -89.510574
  0.420500000   -0.163980  -93.342323  -29.016103   29.921366  -29.066585   28.065865   -0.165031  -94.360764
  0.441000000   -0.171794  -97.997665  -28.745929   24.008699  -28.946274   24.085222   -0.167804  -99.097404
  0.461500000   -0.157723 -102.700829  -28.921690   23.514862  -28.952232   24.230595   -0.196006 -103.767540
  0.482000000   -0.180230 -107.395111  -28.111934   23.385862  -27.961003   24.760660   -0.210575 -108.453049
  0.502500000   -0.194608 -112.075607  -27.451411   17.600906  -27.310006   18.414181   -0.254280 -113.267838
  0.523000000   -0.204504 -116.762100  -27.468082   10.846177  -27.638401   12.711637   -0.260416 -118.079666
  0.543500000   -0.224093 -121.486237  -27.444713   10.309972  -27.376469   10.992970   -0.276729 -122.892326
  0.564000000   -0.240329 -126.201363  -26.744843   10.832640  -26.910980   10.574477   -0.271454 -127.610626
  0.584500000   -0.266181 -131.045746  -26.367717    4.266452  -26.386855    4.426704   -0.325154 -132.384155
  0.605000000   -0.263040 -135.757874  -26.447776    0.479127  -26.268741    0.788088   -0.348494 -137.277054
  0.625500000   -0.295737 -140.690460  -26.011003   -0.949504  -26.022910   -1.075525   -0.349503 -142.119598
  0.646000000   -0.304595 -145.494370  -25.484545   -6.313875  -25.554159   -6.097282   -0.374194 -147.144241
  0.666500000   -0.322950 -150.308640  -25.608258  -10.716156  -25.568485  -12.112542   -0.391750 -151.851013
  0.687000000   -0.341219 -155.204895  -25.905496  -11.758298  -25.922355  -11.850343   -0.426122 -156.744064
  0.707500000   -0.334880 -160.071198  -25.335381  -12.582460  -25.247302  -11.605202   -0.459537 -161.672592
  0.728000000   -0.356716 -164.964218  -24.718053  -19.329784  -24.480706  -19.058592   -0.457921 -166.785126
  0.748500000   -0.382536 -169.840576  -25.228679  -24.468084  -25.149420  -26.367805   -0.468361 -171.706070
  0.769000000   -0.383548 -174.798386  -25.710505  -23.976770  -25.665942  -24.664141   -0.502567 -176.412033
  0.789500000   -0.403686 -179.685211  -24.820120  -24.076496  -24.690844  -24.645432   -0.544272  178.489899
  0.810000000   -0.420127  175.349121  -24.036109  -33.393559  -24.093669  -33.321274   -0.563281  173.262680
  0.830500000   -0.442180  170.407852  -25.249539  -40.516895  -25.120356  -41.190369   -0.569790  168.230850
  0.851000000   -0.451259  165.525436  -25.922176  -37.687977  -26.011028  -37.527081   -0.574869  163.290009
  0.871500000   -0.476022  160.371674  -25.205514  -33.723431  -25.067799  -35.430122   -0.594238  158.281021
  0.892000000   -0.489661  155.305725  -24.307603  -44.274189  -24.397760  -44.004360   -0.649099  153.078506
  0.912500000   -0.511053  150.168762  -25.456889  -51.935295  -25.665323  -52.288513   -0.691263  147.665146
  0.933000000   -0.541342  145.087341  -26.804547  -48.820766  -26.850409  -49.694077   -0.699918  142.505508
  0.953500000   -0.555095  140.022537  -26.234457  -45.807835  -26.140702  -45.954212   -0.689780  137.491669
  0.974000000   -0.587123  134.726486  -26.264643  -51.481293  -26.048028  -52.099598   -0.772966  132.248444
  0.994500000   -0.608792  129.442032  -27.657246  -53.963062  -27.875434  -54.944427   -0.857493  126.929008
  1.015000000   -0.647203  124.360794  -28.817448  -47.216846  -28.984316  -46.969025   -0.908917  121.103149
  1.035500000   -0.673541  119.078819  -29.076036  -38.332127  -29.129659  -37.657936   -0.936572  115.802193
  1.056000000   -0.735605  113.695877  -29.269827  -32.629482  -29.746207  -31.479450   -1.018893  110.432022
  1.076500000   -0.823882  108.318626  -29.849145  -17.892794  -29.723761  -15.808131   -1.176529  104.738876
  1.097000000   -0.929350  102.725471  -27.431792    2.523040  -27.567649    4.325684   -1.355089   98.627228
  1.117500000   -1.056963   97.262344  -23.828737    8.441431  -23.832936    8.715764   -1.565386   92.726082
  1.138000000   -1.246269   91.874092  -21.587825    2.255852  -21.656285    2.579486   -1.854438   87.328041
  1.158500000   -1.514172   86.939117  -19.844735    1.789065  -20.086726    1.826536   -2.271989   82.569878
  1.179000000   -1.807302   82.591110  -16.800245   -1.042152  -16.942768   -0.160938   -2.810327   78.836823
  1.199500000   -2.064738   79.200523  -14.229919  -16.964048  -14.192147  -16.737177   -3.280038   76.440971
  1.220000000   -2.186207   76.414742  -13.612408  -36.147995  -13.808060  -35.962154   -3.463848   75.357361
  1.240500000   -2.178940   73.488884  -14.015715  -44.670864  -14.133695  -42.910709   -3.374748   74.327995
  1.261000000   -2.042822   70.200294  -12.963630  -47.992195  -12.948295  -46.959633   -3.101140   72.423218
  1.281500000   -1.929712   66.330757  -11.634542  -61.992943  -11.638544  -62.410301   -2.825317   69.103882
  1.302000000   -1.747753   61.918800  -12.209098  -80.194885  -12.417281  -78.968765   -2.540121   64.367088
  1.322500000   -1.618728   57.250889  -13.751824  -83.966232  -13.651045  -81.500168   -2.298424   59.356159
  1.343000000   -1.530489   52.239597  -13.106862  -81.359612  -12.889691  -80.351318   -2.112527   54.616283
  1.363500000   -1.425690   47.257160  -11.837522  -91.490448  -11.858726  -92.013115   -1.954982   49.330734
  1.384000000   -1.376873   42.108971  -12.536151 -106.053864  -12.731678 -104.711838   -1.889186   43.730679
  1.404500000   -1.324563   37.120857  -13.887053 -106.986679  -13.627502 -104.621758   -1.867091   37.949989
  1.425000000   -1.296951   31.930189  -13.229682 -104.877289  -12.926219 -105.061211   -1.838872   32.471684
  1.445500000   -1.274121   26.699318  -12.267019 -113.837685  -12.243297 -114.674393   -1.797082   27.220446
  1.466000000   -1.259950   21.502163  -12.959515 -124.335426  -13.067895 -123.311760   -1.817839   21.504465
  1.486500000   -1.230085   16.357763  -13.696645 -124.292435  -13.495165 -122.296257   -1.909670   15.799195
  1.507000000   -1.203552   11.173509  -12.992397 -125.544601  -12.657327 -125.453308   -2.007335    9.482119
  1.527500000   -1.241815    6.035589  -12.631430 -134.896271  -12.485257 -136.140762   -2.096091    3.629981
  1.548000000   -1.244315    0.862929  -13.467284 -141.238037  -13.482761 -141.001175   -2.239861   -1.959913
  1.568500000   -1.256777   -4.489467  -13.661955 -140.453827  -13.433258 -139.447601   -2.447190   -7.844615
  1.589000000   -1.279864   -9.497861  -12.872095 -144.500229  -12.593248 -144.491287   -2.796431  -14.272874
  1.609500000   -1.282978  -14.805934  -12.983120 -154.342789  -12.877640 -155.754974   -3.144530  -20.859436
  1.630000000   -1.338083  -20.209192  -13.934596 -157.345978  -14.064494 -157.468628   -3.570574  -26.553959
  1.650500000   -1.335739  -25.601070  -13.875837 -156.546234  -13.825324 -154.768204   -4.185895  -31.757071
  1.671000000   -1.404250  -30.818510  -13.376666 -160.895935  -13.048729 -160.671478   -4.991175  -36.277035
  1.691500000   -1.448454  -36.382961  -13.812633 -167.560699  -13.608533 -170.327026   -6.017496  -40.180031
  1.712000000   -1.484596  -42.093502  -14.492321 -168.584595  -14.703454 -169.870636   -7.020435  -41.449730
  1.732500000   -1.538013  -47.561016  -14.490878 -166.997314  -14.446756 -165.781143   -7.845880  -38.851494
  1.753000000   -1.658614  -53.226513  -14.044793 -168.154755  -13.613668 -169.189438   -8.318736  -33.322567
  1.773500000   -1.752268  -59.111374  -13.798175 -171.434647  -13.853331 -175.788223   -8.175939  -28.096306
  1.794000000   -1.848452  -64.946266  -13.740550 -174.242523  -14.173562 -173.895905   -7.584062  -25.568495
  1.814500000   -1.981179  -70.932838  -13.425648 -174.467941  -13.312333 -173.189301   -6.688850  -26.440359
  1.835000000   -2.146453  -76.849182  -12.707937 -176.713486  -12.370379 -178.562622   -5.784475  -28.640303
  1.855500000   -2.342095  -83.269661  -12.050286  177.069397  -12.385955  174.785217   -5.127038  -31.704247
  1.876000000   -2.581170  -89.484406  -11.983866  171.625015  -12.227409  172.768311   -4.633182  -36.119987
  1.896500000   -2.852912  -95.907852  -11.727074  168.598984  -11.594617  169.165161   -4.272352  -41.661591
  1.917000000   -3.151154 -102.131638  -11.140148  164.090881  -11.098365  162.516342   -3.928541  -47.250175
  1.937500000   -3.507419 -108.633446  -10.806756  157.383591  -11.075311  156.556458   -3.668545  -51.947197
  1.958000000   -3.925146 -115.366005  -10.730313  151.512680  -10.786574  152.087250   -3.474889  -56.817886
  1.978500000   -4.440837 -122.216522  -10.469499  146.255615  -10.398477  146.077332   -3.431669  -61.583191
  1.999000000   -5.023878 -128.883041  -10.236331  139.781448  -10.281254  139.378281   -3.357388  -66.703461
  2.019500000   -5.705571 -135.742691  -10.159202  132.659317  -10.308166  132.991699   -3.288598  -71.594498
  2.040000000   -6.524092 -142.361115  -10.292846  126.899590  -10.269116  126.991890   -3.216168  -75.503983
  2.060500000   -7.446009 -149.028519  -10.237929  120.577194  -10.240027  120.374855   -3.185312  -79.240700
  2.081000000   -8.536873 -155.687958  -10.286809  113.579903  -10.337712  113.476799   -3.158438  -83.635498
  2.101500000   -9.875079 -162.049683  -10.569750  106.866577  -10.547533  107.085907   -3.114825  -88.128899
  2.122000000  -11.449408 -168.832153  -10.825135  101.123932  -10.801930  100.983810   -2.974654  -92.072868
  2.142500000  -13.622874 -175.560883  -11.080741   95.504387  -11.075440   95.340958   -2.846540  -95.573647
  2.163000000  -16.491758  178.841751  -11.295089   89.960747  -11.335503   89.668701   -2.723381  -99.432449
  2.183500000  -21.263089  173.485855  -11.591565   84.653702  -11.649452   84.215858   -2.654033 -104.000473
  2.204000000  -33.670011 -165.121811  -11.933205   79.170830  -11.970407   78.982010   -2.565678 -108.655006
  2.224500000  -25.541108  -44.310738  -12.280612   74.224640  -12.348269   73.955231   -2.421025 -112.779472
  2.245000000  -18.309506  -45.697811  -12.658900   69.522194  -12.761290   68.891052   -2.284117 -116.738373
  2.265500000  -14.455813  -52.854347  -13.050114   63.906017  -13.100623   63.755150   -2.243333 -121.018074
  2.286000000  -11.978066  -60.355587  -13.622807   58.139465  -13.667401   58.268150   -2.253076 -126.115738
  2.306500000  -10.165504  -67.922539  -14.306362   54.314529  -14.220169   54.133564   -2.153511 -131.127762
  2.327000000   -8.779962  -75.552254  -14.739669   50.901226  -14.808111   50.156136   -2.022268 -135.378555
  2.347500000   -7.619144  -82.933472  -15.120206   46.045349  -15.256195   46.549339   -1.960882 -139.237183
  2.368000000   -6.792225  -90.148201  -15.975857   41.275829  -15.850488   41.570950   -1.961078 -143.810562
  2.388500000   -6.082343  -97.139580  -16.772959   39.214901  -16.710652   38.714371   -1.972572 -149.086288
  2.409000000   -5.465259 -103.943588  -17.148103   38.183002  -17.372251   36.748608   -1.911846 -153.855209
  2.429500000   -4.956731 -110.448967  -17.685506   33.550640  -17.899964   34.116985   -1.787456 -157.774399
  2.450000000   -4.582227 -116.876160  -18.785960   30.610750  -18.533341   31.528917   -1.743190 -161.719864
  2.470500000   -4.198572 -122.909660  -19.729418   32.097363  -19.535156   30.751741   -1.804945 -166.628967
  2.491000000   -3.900518 -128.999619  -19.932215   34.043560  -20.132644   32.165596   -1.871473 -171.834763
  2.511500000   -3.653879 -134.839081  -20.400535   30.189884  -20.532614   31.384911   -1.827749 -176.517792
  2.532000000   -3.428496 -140.707306  -21.503675   28.976875  -21.312733   30.296465   -1.725372  179.814209
  2.552500000   -3.251744 -146.331100  -22.241842   34.216702  -22.093307   33.847229   -1.748374  175.707047
  2.573000000   -3.104005 -151.641846  -22.022323   39.055405  -22.150399   37.757008   -1.834935  170.727783
  2.593500000   -2.975985 -156.888550  -22.033396   36.846363  -22.217312   36.920681   -1.902190  165.369583
  2.614000000   -2.853265 -162.376328  -22.910683   37.804283  -22.845856   38.063808   -1.832405  161.055161
  2.634500000   -2.694640 -167.419647  -23.122936   44.464653  -23.064037   43.893429   -1.775581  157.564621
  2.655000000   -2.636343 -172.275940  -22.314067   48.610874  -22.451512   48.303661   -1.852067  153.380341
  2.675500000   -2.604544 -177.358017  -21.921198   45.937122  -22.182662   45.316074   -1.951703  148.177277
  2.696000000   -2.541616  177.465729  -22.551633   46.600124  -22.565400   46.716755   -1.949590  142.988419
  2.716500000   -2.455378  172.711426  -22.280137   54.169193  -22.411120   53.512123   -1.896956  138.948151
  2.737000000   -2.412658  167.904587  -20.911804   54.246731  -21.173560   54.717461   -1.899436  135.306091
  2.757500000   -2.414773  163.285538  -20.718841   49.685619  -20.563491   49.222218   -1.968636  130.899200
  2.778000000   -2.390373  158.300064  -21.028637   50.058277  -21.137312   48.771084   -2.149455  125.505440
  2.798500000   -2.341500  153.489426  -20.480637   54.454571  -20.756170   54.101799   -2.169383  120.334084
  2.819000000   -2.364345  148.997589  -19.236223   51.739037  -19.260815   53.061714   -2.139708  116.465164
  2.839500000   -2.361062  144.633392  -18.946238   44.836254  -18.990479   45.066620   -2.133954  112.875595
  2.860000000   -2.363512  139.971405  -19.303036   45.684669  -19.523223   44.899792   -2.273209  107.912262
  2.880500000   -2.399839  135.418076  -18.637556   48.932121  -18.870432   50.315468   -2.403233  102.263428
  2.901000000   -2.391193  130.833603  -17.505468   44.598560  -17.434588   45.792820   -2.423908   97.541443
  2.921500000   -2.397869  126.371521  -17.463594   37.188763  -17.472569   37.677650   -2.431579   93.786148
  2.942000000   -2.469973  122.111977  -17.759269   37.963745  -17.930793   38.445343   -2.488704   90.023224
  2.962500000   -2.490368  117.417961  -16.915231   39.834026  -16.974510   41.705116   -2.656342   84.774277
  2.983000000   -2.496158  112.938484  -15.941482   33.633400  -15.760352   34.869637   -2.792042   79.067337
  3.003500000   -2.507082  108.294746  -16.106595   28.676863  -16.115906   27.337898   -2.803147   74.061745
  3.024000000   -2.628471  104.011963  -16.209626   29.253757  -16.670236   29.689972   -2.844135   70.800781
  3.044500000   -2.672558   99.946877  -15.152121   28.576912  -15.137382   32.191689   -2.933357   66.452255
  3.065000000   -2.706209   95.353119  -14.722084   21.092531  -14.009964   21.374830   -3.201106   60.648964
  3.085500000   -2.764709   90.979645  -15.127734   17.884815  -14.896309   15.768597   -3.302633   54.842682
  3.106000000   -2.832045   86.528770  -14.632742   19.339895  -15.251868   20.370657   -3.329147   50.440163
  3.126500000   -2.907411   81.930038  -13.528523   16.240547  -13.477754   22.009968   -3.337533   47.049049
  3.147000000   -3.005481   77.618164  -13.400134    7.163735  -12.456497    8.312918   -3.613789   41.665318
  3.167500000   -3.092853   73.150276  -13.801235    6.001175  -13.569315    1.062212   -3.883841   35.188950
  3.188000000   -3.191939   68.385979  -13.001768    8.727300  -13.774264    8.007538   -4.018018   29.139370
  3.208500000   -3.285263   63.519066  -11.749435    1.580012  -11.850883    8.338200   -4.027759   25.004297
  3.229000000   -3.453243   59.080597  -11.974053   -8.873124  -10.903176   -6.315531   -4.257427   20.820383
  3.249500000   -3.540544   54.619976  -12.713433   -8.177014  -12.137648  -13.677670   -4.553313   15.840679
  3.270000000   -3.708506   50.032352  -11.633734   -6.257874  -12.261936   -8.638242   -4.911526    8.316171
  3.290500000   -3.783766   45.029629  -10.185893  -14.732924  -10.490878   -8.783644   -4.978223    2.372034
  3.311000000   -4.040434   40.514530  -10.598260  -26.100807   -9.524787  -22.788198   -5.113299   -1.322107
  3.331500000   -4.228693   36.027065  -11.308926  -25.519857  -10.711683  -30.422071   -5.414263   -5.645654
  3.352000000   -4.403659   31.488182  -10.339361  -23.557550  -10.925939  -26.888399   -5.986657  -11.881245
  3.372500000   -4.547323   26.818377   -9.108131  -32.829105   -9.375440  -28.550226   -6.345499  -19.485910
  3.393000000   -4.836999   22.434175   -9.533034  -43.533920   -8.685197  -41.037796   -6.428688  -25.147606
  3.413500000   -5.091787   17.786688  -10.223789  -44.191093   -9.469025  -48.607494   -6.547128  -28.121954
  3.434000000   -5.304665   13.464065   -9.395163  -43.896477   -9.705882  -46.803951   -7.144909  -32.645161
  3.454500000   -5.466854    8.999417   -8.355873  -53.014648   -8.588981  -49.603451   -7.900559  -39.242134
  3.475000000   -5.780720    4.201106   -8.668784  -61.736732   -8.186240  -60.961807   -8.222397  -47.343639
  3.495500000   -6.111684   -0.402389   -9.063083  -64.775360   -8.762291  -67.080055   -8.243578  -51.404480
  3.516000000   -6.372588   -4.594619   -8.539619  -65.587646   -8.827709  -67.522339   -8.513564  -52.976223
  3.536500000   -6.665369   -8.761604   -7.945225  -72.794197   -8.045136  -71.611252   -9.253155  -56.574795
  3.557000000   -6.849314  -13.174031   -8.173858  -80.950745   -7.736359  -80.559387  -10.018174  -64.011383
  3.577500000   -7.127863  -17.570639   -8.428127  -83.972183   -8.231116  -86.653725  -10.183530  -70.946785
  3.598000000   -7.559469  -21.785126   -8.089580  -86.960075   -8.308642  -87.998856   -9.938833  -73.817688
  3.618500000   -7.753399  -25.952311   -7.601582  -93.535995   -7.717913  -92.233902  -10.274849  -73.578362
  3.639000000   -7.979103  -29.934862   -7.795674 -100.781075   -7.526802 -101.265686  -11.363394  -76.738091
  3.659500000   -8.361117  -34.830196   -8.071359 -105.485535   -8.037380 -106.372208  -11.979910  -85.289810
  3.680000000   -8.671365  -38.661388   -7.874535 -108.174187   -8.148120 -108.960907  -11.703925  -92.105537
  3.700500000   -8.950868  -42.964928   -7.603281 -113.986900   -7.751004 -112.897697  -11.163533  -92.962440
  3.721000000   -9.134689  -46.996815   -7.651472 -121.133324   -7.615626 -120.835060  -11.337763  -91.547981
  3.741500000   -9.411062  -51.796413   -8.001996 -125.802254   -7.923696 -126.484627  -12.251714  -95.364456
  3.762000000   -9.716481  -55.905312   -7.916190 -128.684113   -8.067986 -129.328018  -12.769635 -103.971489
  3.782500000  -10.015900  -59.981705   -7.758950 -134.128632   -7.894021 -133.187790  -12.032277 -112.177902
  3.803000000  -10.201088  -63.876286   -7.684308 -141.058258   -7.715246 -140.020279  -11.321520 -112.243027
