! Anritsu VNA Master:                         Model: MS2036C/2
! SN:                                  2120025
! /bd0/ab_5.s2p
! Existing Calibration Information:
! TYPE:                         Current Settings,       Active Cal Settings
! TIME:             	   03/02/2026 03:02:49 AM,    03/02/2026 02:47:23 AM
! INTERNAL TEMP:    	                   53.8 C,                    51.8 C
! # POINTS:         	                      201,                       201
! START FREQ:       	              400.000 MHz,               400.000 MHz
! STOP FREQ:        	                4.500 GHz,                 4.500 GHz
! SOURCE POWER:     	                     High,                      High
! IFBW:             	                   10 kHz,                    10 kHz
! AVG FACTOR:       	                       1 ,                        1 
! REF PLANE 1:      	                     0 mm,                      0 mm
! REF PLANE 2:      	                     0 mm,                      0 mm
! CAL TYPE:         	              Full 2 Port,               Full 2 Port
! CAL METHOD:       	                     SOLT,                      SOLT
! CAL LINE TYPE:    	                     Coax,                      Coax
! DUT PORT 1:       	                N-Conn(M),                 N-Conn(M)
! DUT PORT 2:       	                N-Conn(M),                 N-Conn(M)
! CAL STATUS:       	        OK: Accuracy High,                        --
# GHZ S DB R 50.0
! FREQ.GHZ       S11DB        S11A       S21DB        S21A       S12DB        S12A       S22DB        S22A
  0.400000000   -0.183610  -88.827576  -29.791011   36.203480  -29.461143   34.388458   -0.166745  -89.654915
  0.420500000   -0.205212  -93.479073  -28.790889   31.989225  -29.152097   29.295227   -0.187981  -94.351105
  0.441000000   -0.200626  -98.151939  -28.898150   23.729527  -29.170110   24.573658   -0.188944  -99.084297
  0.461500000   -0.196798 -102.816032  -29.048974   23.754353  -29.048669   25.695799   -0.223299 -103.686745
  0.482000000   -0.225824 -107.585632  -28.160275   24.394369  -28.165547   23.751381   -0.243258 -108.454498
  0.502500000   -0.222945 -112.254738  -27.243122   17.796257  -27.438433   17.414070   -0.255416 -113.217049
  0.523000000   -0.242357 -116.833801  -27.184250   12.839969  -27.435401   12.838180   -0.270148 -117.983612
  0.543500000   -0.256776 -121.708344  -27.681972   11.466256  -27.501100   11.940529   -0.289784 -122.907639
  0.564000000   -0.282314 -126.452057  -26.874156   10.011827  -26.836128    9.130057   -0.301106 -127.676987
  0.584500000   -0.308315 -131.275253  -26.323111    5.817394  -26.489485    4.921355   -0.331767 -132.461594
  0.605000000   -0.310897 -136.104004  -26.558142    0.537242  -26.379205    0.796429   -0.362054 -137.339325
  0.625500000   -0.325637 -140.937943  -26.417389   -1.841983  -26.261247   -1.342023   -0.360849 -142.234299
  0.646000000   -0.339093 -145.846786  -25.723460   -6.521231  -25.702492   -5.690862   -0.390670 -147.223846
  0.666500000   -0.367187 -150.702713  -25.971243  -11.121478  -25.740856  -11.171054   -0.405311 -151.988495
  0.687000000   -0.379017 -155.547791  -26.317107  -12.466252  -26.235791  -10.851365   -0.436561 -156.715042
  0.707500000   -0.384649 -160.590454  -25.671185  -11.735225  -25.601703  -13.073321   -0.464999 -161.892029
  0.728000000   -0.388620 -165.513657  -25.220987  -19.780441  -25.087060  -19.450190   -0.472155 -167.016586
  0.748500000   -0.433011 -170.455750  -25.745547  -25.203434  -25.903060  -26.047075   -0.484406 -171.980804
  0.769000000   -0.427314 -175.494247  -26.333283  -23.490170  -26.468147  -23.347111   -0.525304 -176.979614
  0.789500000   -0.438943  179.398056  -25.933138  -22.397123  -25.792966  -22.607990   -0.571000  178.021149
  0.810000000   -0.459642  174.515137  -25.871880  -31.052025  -25.743848  -31.344004   -0.604273  172.510803
  0.830500000   -0.510519  169.364822  -27.260240  -38.042011  -27.203702  -37.840954   -0.623281  167.244736
  0.851000000   -0.517355  164.193939  -28.698208  -32.168045  -28.540980  -30.169191   -0.654061  162.044754
  0.871500000   -0.571133  158.875992  -28.681556  -20.318060  -28.692257  -23.610502   -0.704045  156.577164
  0.892000000   -0.619920  153.503174  -29.108114  -19.571644  -28.889894  -18.053806   -0.812374  151.015045
  0.912500000   -0.692665  147.950623  -30.137683   -3.770269  -30.687076   -2.408478   -0.972257  144.854279
  0.933000000   -0.823747  142.432022  -28.410295   24.645798  -28.653624   27.366779   -1.176906  138.910126
  0.953500000   -1.011562  136.995697  -23.313977   38.546925  -23.259788   40.169498   -1.544303  133.199219
  0.974000000   -1.347328  132.067871  -18.606425   27.265091  -18.558922   27.191156   -2.218626  128.798813
  0.994500000   -1.713121  128.977371  -16.048149    7.821185  -16.135298    7.156715   -2.946768  127.723251
  1.015000000   -1.763670  127.219803  -14.864382   -9.256805  -14.934130   -8.863247   -2.910861  128.929474
  1.035500000   -1.524657  124.314636  -13.961268  -24.678333  -13.986618  -25.096830   -2.352868  127.513878
  1.056000000   -1.311452  119.789429  -13.871942  -42.755726  -14.056216  -43.043995   -1.857787  123.538605
  1.076500000   -1.164509  114.933571  -14.950891  -53.042637  -15.123212  -51.943470   -1.598502  118.278702
  1.097000000   -1.052054  109.676758  -15.185153  -55.622963  -15.177040  -54.884304   -1.421860  112.585297
  1.117500000   -0.979454  104.525314  -14.513052  -62.960869  -14.561628  -63.203312   -1.281266  106.852043
  1.138000000   -0.954691   99.377655  -15.083898  -75.591537  -15.249491  -74.817924   -1.179364  101.443871
  1.158500000   -0.907556   94.309875  -16.287646  -77.690994  -16.386865  -75.536537   -1.113815   96.419594
  1.179000000   -0.908591   89.195068  -15.724033  -73.535362  -15.686321  -73.655518   -1.129029   90.990677
  1.199500000   -0.889414   84.039787  -14.548391  -82.526115  -14.590480  -82.988861   -1.139020   85.450287
  1.220000000   -0.856207   78.984436  -15.343057  -96.235687  -15.492262  -95.182915   -1.123316   79.737984
  1.240500000   -0.875589   73.911514  -16.827217  -94.553246  -16.757610  -92.900955   -1.097069   74.430069
  1.261000000   -0.861159   68.801865  -15.806104  -88.279320  -15.690754  -87.830482   -1.127405   69.219749
  1.281500000   -0.861732   63.681862  -14.266614  -98.456696  -14.308973  -98.541039   -1.163197   63.519699
  1.302000000   -0.858209   58.742290  -15.092253 -112.924126  -15.236805 -111.407082   -1.250013   57.773190
  1.322500000   -0.871475   53.743587  -16.547437 -110.588783  -16.398757 -108.498970   -1.283337   52.160690
  1.343000000   -0.885599   48.691456  -15.402892 -105.316391  -15.313487 -105.551216   -1.368238   46.558147
  1.363500000   -0.877198   43.608978  -13.965427 -115.098206  -14.005361 -115.670555   -1.440187   40.711441
  1.384000000   -0.891096   38.520050  -14.747432 -128.846466  -14.826248 -127.344070   -1.657829   34.404469
  1.404500000   -0.881003   33.571205  -15.677278 -127.416771  -15.570548 -125.966873   -1.884983   27.813091
  1.425000000   -0.923998   28.722519  -14.772677 -126.679436  -14.584922 -126.393608   -2.198878   21.476265
  1.445500000   -0.938010   23.577780  -14.007850 -137.655823  -13.937944 -138.073761   -2.631289   15.127137
  1.466000000   -0.946594   18.461113  -14.889892 -148.175415  -14.887829 -147.450317   -3.333093    8.799326
  1.486500000   -0.966119   13.497724  -15.477266 -149.472015  -15.429090 -147.404663   -4.362866    3.109879
  1.507000000   -0.926283    8.715969  -15.362345 -154.682495  -15.001339 -152.776245   -5.741433    0.049167
  1.527500000   -0.964012    3.879070  -15.940571 -162.979538  -15.622637 -164.690765   -7.201636    3.338507
  1.548000000   -0.956207   -1.300889  -17.338916 -167.218338  -17.518839 -167.367188   -7.742932   13.377657
  1.568500000   -0.950430   -6.584678  -18.380979 -163.706848  -18.256421 -160.035767   -6.908448   22.077549
  1.589000000   -0.947798  -11.654593  -18.293941 -157.872818  -17.630320 -158.149841   -5.620623   23.606701
  1.609500000   -0.994387  -16.812323  -17.842640 -157.217987  -17.783887 -162.638306   -4.479077   19.936007
  1.630000000   -1.052948  -22.398441  -17.941441 -159.775787  -18.315434 -158.634064   -3.581074   14.837640
  1.650500000   -1.105205  -27.731443  -17.720781 -155.899719  -17.334817 -153.430466   -2.940739    9.252763
  1.671000000   -1.190558  -33.051121  -16.347456 -155.359833  -15.763577 -158.647202   -2.498189    3.844207
  1.691500000   -1.296939  -38.229176  -15.485513 -164.305206  -15.596198 -168.888641   -2.254406   -2.575255
  1.712000000   -1.441565  -43.811523  -15.971238 -170.780914  -16.271027 -169.253296   -2.097496   -8.583229
  1.732500000   -1.604424  -49.034531  -15.851977 -170.127289  -15.452400 -169.402985   -1.942136  -14.264681
  1.753000000   -1.823318  -53.671253  -14.815921 -173.845551  -14.473007 -177.463058   -1.766715  -19.278454
  1.773500000   -2.075628  -57.970112  -14.394436  174.825058  -14.775728  171.641525   -1.738031  -24.110285
  1.794000000   -2.297326  -61.620205  -15.457502  166.695587  -15.657475  168.206558   -1.733893  -29.304005
  1.814500000   -2.402164  -64.695770  -15.944846  166.665771  -15.715938  167.287598   -1.669639  -34.567677
  1.835000000   -2.328369  -67.742226  -15.812855  165.039505  -15.710831  162.539780   -1.547149  -38.952213
  1.855500000   -2.212151  -71.703896  -16.007918  160.100174  -16.238229  158.338623   -1.442566  -43.449512
  1.876000000   -2.060170  -76.353340  -16.671012  158.435806  -16.748213  159.193939   -1.402372  -48.336082
  1.896500000   -1.927284  -81.323868  -16.606379  160.632202  -16.545958  161.201706   -1.383517  -53.614498
  1.917000000   -1.847663  -86.762230  -16.087124  159.790878  -16.135585  158.410721   -1.306148  -58.750893
  1.937500000   -1.856527  -92.461006  -15.874217  156.283539  -16.108747  155.436707   -1.240148  -63.024532
  1.958000000   -1.841840  -98.165794  -15.832516  154.369980  -15.894685  154.698059   -1.206553  -67.635330
  1.978500000   -1.873841 -103.758354  -15.470391  153.179352  -15.439296  152.594040   -1.228643  -72.497131
  1.999000000   -1.887334 -109.519493  -15.108782  149.305939  -15.144687  148.479019   -1.240289  -77.693787
  2.019500000   -1.961293 -115.233650  -14.998975  145.332031  -15.154004  145.769516   -1.225379  -82.257233
  2.040000000   -2.004923 -121.155945  -14.881537  143.475342  -14.828114  143.283249   -1.190400  -86.565750
  2.060500000   -2.065365 -127.194199  -14.519408  140.447998  -14.446299  139.785187   -1.212481  -91.116127
  2.081000000   -2.178837 -133.537994  -14.216830  136.068878  -14.312059  135.694382   -1.257840  -96.246758
  2.101500000   -2.311575 -139.799881  -14.080864  132.220367  -14.146465  132.173660   -1.251716 -100.992439
  2.122000000   -2.490060 -146.546326  -13.908816  129.062897  -13.881415  128.825256   -1.231263 -105.555389
  2.142500000   -2.687017 -153.805939  -13.624325  124.767021  -13.633008  124.602554   -1.224903 -109.449318
  2.163000000   -2.889612 -160.789978  -13.293605  120.393105  -13.408115  120.248024   -1.228533 -113.937668
  2.183500000   -3.166960 -167.888290  -13.127510  116.243416  -13.224359  115.700058   -1.326281 -118.958946
  2.204000000   -3.510093 -175.640152  -12.968298  112.033058  -13.080325  111.182846   -1.341437 -123.518723
  2.224500000   -3.939456  175.663834  -12.882903  106.709770  -12.922690  106.850998   -1.359992 -127.624939
  2.245000000   -4.433542  167.233246  -12.670697  102.512390  -12.745689  101.906593   -1.338466 -131.515900
  2.265500000   -5.054673  158.066544  -12.505843   96.441124  -12.668388   96.091881   -1.416897 -136.039185
  2.286000000   -5.842563  148.028809  -12.636123   90.410141  -12.662659   90.526894   -1.445931 -140.984634
  2.306500000   -6.783730  137.581619  -12.728561   85.668503  -12.686111   85.187439   -1.467895 -145.522827
  2.327000000   -8.018659  125.771004  -12.681046   80.846161  -12.788283   79.854385   -1.459645 -149.360107
  2.347500000   -9.578408  112.761841  -12.798850   73.791290  -13.079755   74.076324   -1.446542 -153.179916
  2.368000000  -11.564346   97.462021  -13.272927   67.739380  -13.305305   68.862923   -1.505925 -158.036774
  2.388500000  -13.942256   77.529053  -13.784157   64.427406  -13.577559   63.805695   -1.582090 -162.906097
  2.409000000  -16.599039   48.502964  -13.819454   60.653267  -14.037607   59.093369   -1.560692 -167.399338
  2.429500000  -18.315500    6.285405  -14.079317   53.461742  -14.636192   55.383778   -1.512182 -171.240585
  2.450000000  -17.090004  -36.197323  -15.173170   49.675823  -15.083597   52.617142   -1.514898 -175.044022
  2.470500000  -14.605780  -64.780762  -15.947434   50.636566  -15.674942   49.895252   -1.596751  179.997498
  2.491000000  -12.463061  -84.910324  -16.010224   51.261593  -16.336295   49.538601   -1.704987  174.787231
  2.511500000  -10.818115 -100.158012  -16.299810   47.776531  -16.641666   50.149158   -1.683358  170.166046
  2.532000000   -9.463176 -112.411476  -17.192499   47.797009  -16.893882   49.931625   -1.662322  166.425079
  2.552500000   -8.447620 -123.542305  -17.416468   53.105556  -17.127728   51.869404   -1.750242  161.894623
  2.573000000   -7.730036 -133.458862  -16.669952   55.439766  -16.837808   54.558048   -1.906241  156.680252
  2.593500000   -7.178860 -142.477814  -16.300103   51.248375  -16.416201   53.507690   -2.030338  151.284241
  2.614000000   -6.706054 -151.112015  -16.584928   51.081833  -16.333281   52.171825   -2.040229  146.950226
  2.634500000   -6.401836 -158.718399  -16.190390   55.342224  -16.028553   53.435661   -2.089032  143.166412
  2.655000000   -6.188531 -165.974319  -14.952175   53.657345  -15.129882   53.041409   -2.251862  138.710922
  2.675500000   -6.049388 -172.978348  -14.493468   46.318878  -14.501926   47.925766   -2.512493  133.580093
  2.696000000   -5.909842 -179.859711  -14.670224   44.514156  -14.604220   44.106819   -2.637167  128.378799
  2.716500000   -5.824079  173.992706  -14.085880   46.332050  -14.212451   44.703903   -2.682394  124.592789
  2.737000000   -5.801082  168.193024  -12.898225   41.289413  -13.091002   42.074718   -2.814344  121.213318
  2.757500000   -5.884772  162.315216  -12.757866   33.480213  -12.704420   34.332115   -3.128922  116.587791
  2.778000000   -5.928467  156.589554  -13.066479   30.386517  -12.876084   30.118229   -3.429133  111.430328
  2.798500000   -6.046787  151.409607  -12.344707   30.910599  -12.474159   29.919376   -3.602370  107.232506
  2.819000000   -6.121799  146.451447  -11.335683   23.651848  -11.480722   24.270311   -3.763541  103.787537
  2.839500000   -6.301254  141.714874  -11.316173   14.675243  -11.248686   15.322395   -4.001697  100.804482
  2.860000000   -6.475053  137.168427  -11.614213   11.426493  -11.542662   11.450534   -4.369109   96.982918
  2.880500000   -6.647213  132.914780  -11.041282   10.037013  -11.173606    9.816867   -4.666520   92.856903
  2.901000000   -6.847601  129.050003  -10.280979    1.919595  -10.360340    2.436346   -4.789281   89.772316
  2.921500000   -6.992728  125.801605  -10.490788   -6.981772  -10.494735   -6.338874   -4.858701   88.165108
  2.942000000   -7.140639  122.048676  -10.801529  -10.098665  -10.852173  -10.308104   -5.055017   86.138367
  2.962500000   -7.278385  118.669212  -10.420942  -12.733940  -10.457219  -12.295244   -5.274064   83.022964
  2.983000000   -7.366187  115.413834   -9.957979  -20.933868   -9.896905  -20.579809   -5.430877   79.074692
  3.003500000   -7.467704  112.334618  -10.328399  -28.849926  -10.326727  -29.011078   -5.360875   75.884956
  3.024000000   -7.586171  109.097031  -10.671863  -31.497995  -10.816003  -31.760906   -5.303991   74.737877
  3.044500000   -7.642671  105.624802  -10.367282  -35.710312  -10.328011  -33.693932   -5.398063   73.044716
  3.065000000   -7.687093  102.735451  -10.278178  -43.788296   -9.940403  -42.817539   -5.473951   68.977219
  3.085500000   -7.803274   99.233665  -10.773327  -50.226662  -10.634645  -50.992550   -5.490318   64.461479
  3.106000000   -7.799527   96.124741  -10.998814  -51.355556  -11.195919  -51.765823   -5.233952   61.441532
  3.126500000   -7.936342   92.989044  -10.505056  -55.805977  -10.663665  -53.864731   -5.025586   59.251961
  3.147000000   -7.920254   89.487755  -10.744896  -65.576340  -10.259760  -63.466171   -5.043895   56.042500
  3.167500000   -7.978570   85.847702  -11.534701  -69.640579  -11.081149  -71.366920   -5.091200   50.700138
  3.188000000   -8.035132   82.756691  -11.499235  -68.302094  -11.785408  -71.090187   -4.962400   45.579338
  3.208500000   -8.058215   79.332718  -10.605531  -74.299553  -11.161305  -71.602608   -4.766957   41.940094
  3.229000000   -7.966657   75.240616  -11.018540  -86.046173  -10.598565  -81.374161   -4.642511   39.443382
  3.249500000   -8.008464   71.292397  -12.202455  -88.825760  -11.502885  -90.062637   -4.723480   34.676373
  3.270000000   -8.012394   67.382919  -12.076402  -85.176437  -12.098507  -89.995499   -4.787874   28.615833
  3.290500000   -8.146963   63.250019  -10.988390  -91.269493  -11.481251  -90.245232   -4.664313   22.742722
  3.311000000   -8.120484   58.779243  -11.277561 -105.457909  -10.997298  -99.631516   -4.408551   18.988506
  3.331500000   -8.221988   53.492073  -12.773257 -107.946106  -11.817949 -108.598679   -4.471997   15.216446
  3.352000000   -8.334595   48.772678  -12.593951 -104.187546  -12.385748 -109.194305   -4.538601   10.041405
  3.372500000   -8.529717   43.170700  -11.372801 -111.641144  -11.997364 -110.609657   -4.683696    3.115359
  3.393000000   -8.716411   38.764500  -11.770363 -124.240707  -11.646118 -120.229881   -4.552321   -2.791929
  3.413500000   -8.972579   32.539158  -13.208289 -127.275177  -12.409678 -128.032654   -4.359735   -6.772744
  3.434000000   -9.234367   26.417484  -13.082954 -124.755196  -13.025738 -129.507706   -4.401525  -10.599015
  3.454500000   -9.637138   21.150568  -11.950137 -131.807220  -12.503145 -132.324295   -4.668330  -16.717459
  3.475000000  -10.053204   15.614118  -12.459649 -144.891525  -12.510365 -141.579224   -4.728706  -23.887135
  3.495500000  -10.478619    9.618358  -13.828237 -147.909149  -13.252034 -147.749039   -4.502487  -30.284515
  3.516000000  -11.188505    3.010587  -13.868270 -146.825958  -13.489990 -150.698669   -4.409832  -33.638508
  3.536500000  -11.824141   -3.829003  -13.131560 -153.777878  -13.489052 -155.147263   -4.550244  -38.067802
  3.557000000  -12.640907   -9.378059  -13.635809 -166.030212  -13.620007 -162.545502   -4.877925  -45.308956
  3.577500000  -13.620863  -14.991879  -14.812884 -168.521072  -14.460131 -169.855133   -4.933295  -53.384594
  3.598000000  -14.808358  -21.384768  -14.845669 -169.545776  -14.737270 -172.440445   -4.644862  -58.349953
  3.618500000  -16.048239  -28.094889  -14.547172 -176.280106  -15.042565 -177.596741   -4.521719  -62.008629
  3.639000000  -17.789207  -34.696381  -15.249948  171.054489  -15.490381  175.515915   -4.846145  -66.822952
  3.659500000  -19.743540  -38.932690  -16.785237  168.225052  -15.969671  169.402603   -5.154334  -75.096550
  3.680000000  -22.921759  -42.845924  -17.106039  166.681839  -16.611217  164.502258   -5.006344  -82.734573
  3.700500000  -26.538440  -48.991852  -16.832502  159.804779  -17.295424  160.866562   -4.702588  -87.228165
  3.721000000  -32.497597  -45.228363  -17.700698  150.788132  -17.732357  155.226669   -4.619643  -90.454628
  3.741500000  -39.883209   47.640202  -19.168125  146.734924  -18.308653  148.263733   -5.029464  -97.225067
  3.762000000  -30.244309   80.133804  -19.596786  146.296616  -19.476538  143.241104   -5.312569 -105.109680
  3.782500000  -25.758266   86.984589  -19.793274  141.804993  -20.327999  139.630295   -5.043752 -112.314972
  3.803000000  -22.959515   81.129379  -20.805618  130.394287  -21.232646  136.478653   -4.677186 -115.671753
