! Anritsu VNA Master:                         Model: MS2036C/2
! SN:                                  2120025
! /bd0/ab_8.s2p
! Existing Calibration Information:
! TYPE:                         Current Settings,       Active Cal Settings
! TIME:             	   03/02/2026 03:19:38 AM,    03/02/2026 02:47:23 AM
! INTERNAL TEMP:    	                   55.0 C,                    51.8 C
! # POINTS:         	                      201,                       201
! START FREQ:       	              400.000 MHz,               400.000 MHz
! STOP FREQ:        	                4.500 GHz,                 4.500 GHz
! SOURCE POWER:     	                     High,                      High
! IFBW:             	                   10 kHz,                    10 kHz
! AVG FACTOR:       	                       1 ,                        1 
! REF PLANE 1:      	                     0 mm,                      0 mm
! REF PLANE 2:      	                     0 mm,                      0 mm
! CAL TYPE:         	              Full 2 Port,               Full 2 Port
! CAL METHOD:       	                     SOLT,                      SOLT
! CAL LINE TYPE:    	                     Coax,                      Coax
! DUT PORT 1:       	                N-Conn(M),                 N-Conn(M)
! DUT PORT 2:       	                N-Conn(M),                 N-Conn(M)
! CAL STATUS:       	        OK: Accuracy High,                        --
# GHZ S DB R 50.0
! FREQ.GHZ       S11DB        S11A       S21DB        S21A       S12DB        S12A       S22DB        S22A
  0.400000000   -0.147327  -89.066811  -29.523980   35.797169  -29.631401   34.274639   -0.131528  -89.528381
  0.420500000   -0.171443  -93.490067  -29.065036   30.191185  -29.003685   30.730888   -0.154712  -94.273186
  0.441000000   -0.170750  -98.207764  -29.003629   25.033161  -29.151183   23.897259   -0.150497  -98.988594
  0.461500000   -0.166979 -102.961647  -29.386699   24.390076  -28.957994   23.500633   -0.177851 -103.641380
  0.482000000   -0.192884 -107.701599  -28.173972   24.526699  -28.079395   23.735016   -0.206724 -108.384460
  0.502500000   -0.208651 -112.400673  -27.274143   17.281214  -27.306612   18.229387   -0.243853 -113.216415
  0.523000000   -0.222600 -117.057571  -27.486075   10.928621  -27.473668   10.739666   -0.240525 -117.945740
  0.543500000   -0.240077 -121.774551  -27.506834    9.181719  -27.408746   11.818099   -0.243778 -122.831551
  0.564000000   -0.264945 -126.657417  -26.794486   10.045957  -26.841443    8.344088   -0.263090 -127.650826
  0.584500000   -0.279436 -131.477264  -26.358078    3.981504  -26.482325    4.437145   -0.301886 -132.402252
  0.605000000   -0.282340 -136.217010  -26.351574    0.118331  -26.365954   -0.719182   -0.315685 -137.228470
  0.625500000   -0.311105 -141.109848  -26.052297   -1.432479  -26.162882   -1.683496   -0.320654 -142.099716
  0.646000000   -0.317694 -146.061539  -25.604643   -6.240317  -25.546551   -5.904922   -0.334432 -146.984909
  0.666500000   -0.340741 -150.977112  -25.738303  -10.935511  -25.650583  -12.927264   -0.361289 -151.824814
  0.687000000   -0.351768 -155.839706  -26.031383  -12.668162  -26.104165  -12.031169   -0.397989 -156.564713
  0.707500000   -0.354194 -160.792908  -25.623795  -13.186913  -25.218935  -13.165349   -0.424619 -161.704422
  0.728000000   -0.369663 -165.736176  -24.827222  -21.039381  -24.848371  -19.241348   -0.418468 -166.763214
  0.748500000   -0.401100 -170.686066  -25.441758  -26.677767  -25.573359  -28.754108   -0.442056 -171.949554
  0.769000000   -0.387003 -175.665466  -25.968177  -25.800137  -26.051005  -25.529007   -0.457910 -176.689819
  0.789500000   -0.404876  179.241333  -25.355969  -24.499151  -25.339947  -25.245279   -0.500272  178.155136
  0.810000000   -0.418232  174.391388  -24.788205  -34.624889  -24.691127  -34.799675   -0.527625  172.942017
  0.830500000   -0.470308  169.194717  -25.810512  -41.286156  -26.014927  -42.672527   -0.534716  167.722534
  0.851000000   -0.453690  164.091385  -27.207090  -38.953163  -27.145075  -39.568233   -0.538925  162.615936
  0.871500000   -0.488585  158.958969  -26.845700  -36.062038  -26.370012  -35.796967   -0.543792  157.570541
  0.892000000   -0.504731  153.610382  -26.255875  -45.228031  -26.394317  -45.243454   -0.621933  152.079742
  0.912500000   -0.534659  148.238724  -28.640655  -52.192783  -28.453475  -50.713856   -0.664876  146.201569
  0.933000000   -0.564443  143.045807  -30.721834  -43.419106  -31.214506  -42.372524   -0.684359  140.710114
  0.953500000   -0.576038  137.502289  -32.870343  -29.404493  -32.682064  -28.457870   -0.731721  134.931763
  0.974000000   -0.634678  131.961456  -34.604173    0.709698  -34.739716   -0.441439   -0.879377  128.897217
  0.994500000   -0.741988  126.160927  -31.587391   40.225834  -31.394081   41.865143   -1.097288  121.938492
  1.015000000   -0.893207  119.974251  -25.227641   56.644032  -25.298937   57.034134   -1.415336  114.318596
  1.035500000   -1.192100  113.731125  -18.927341   51.225140  -19.094794   51.634151   -2.034858  106.683418
  1.056000000   -1.817833  108.644264  -14.495369   29.645941  -14.700470   30.344284   -3.431488  101.197884
  1.076500000   -2.491579  107.537682  -12.024099    4.398290  -12.299486    5.890501   -5.208580  106.417625
  1.097000000   -2.354238  108.603928  -11.164100  -19.118008  -11.152126  -16.701622   -4.556286  116.886490
  1.117500000   -1.824789  105.933464  -10.879281  -39.039768  -10.762982  -38.694908   -3.071056  115.378517
  1.138000000   -1.488922  101.108337  -11.737410  -58.591084  -11.839385  -57.903046   -2.174993  109.536888
  1.158500000   -1.255024   95.775719  -13.411939  -66.720619  -13.479622  -64.061577   -1.714832  103.321518
  1.179000000   -1.149310   90.098404  -13.447309  -65.507446  -13.267461  -64.569717   -1.519031   96.911942
  1.199500000   -1.054044   84.785393  -12.475105  -75.914787  -12.488240  -75.804718   -1.403485   90.462128
  1.220000000   -0.996254   79.504616  -13.413000  -90.593582  -13.644427  -89.614136   -1.293112   84.299141
  1.240500000   -0.945465   74.215958  -15.092632  -90.141273  -15.074976  -87.531944   -1.220830   78.482994
  1.261000000   -0.931325   68.975960  -14.435685  -84.959511  -14.178357  -84.121529   -1.182966   72.963951
  1.281500000   -0.921348   63.780178  -12.960411  -94.689331  -12.950914  -94.938614   -1.200743   67.155464
  1.302000000   -0.902953   58.659084  -13.745921 -110.110504  -13.906742 -107.895935   -1.240521   60.921776
  1.322500000   -0.922840   53.641651  -15.344974 -108.272514  -15.125022 -105.332253   -1.264048   55.170776
  1.343000000   -0.927677   48.610703  -14.451612 -102.808250  -14.118766 -102.654083   -1.287870   49.493893
  1.363500000   -0.907271   43.391171  -12.940505 -112.707939  -12.964664 -113.214607   -1.329602   43.591881
  1.384000000   -0.920765   38.217930  -13.642000 -126.583473  -13.792343 -124.746918   -1.448435   37.103710
  1.404500000   -0.912463   33.270813  -14.710304 -125.433640  -14.508753 -123.345009   -1.642606   30.182100
  1.425000000   -0.944528   28.260492  -13.767366 -124.821663  -13.523384 -124.407211   -1.916874   23.487734
  1.445500000   -0.982336   23.236593  -12.906651 -135.729416  -12.872154 -135.909317   -2.286019   16.662130
  1.466000000   -0.971255   18.124775  -13.695787 -147.082367  -13.688906 -146.209351   -2.887087    9.260199
  1.486500000   -0.962107   13.331607  -14.304822 -149.596832  -14.196361 -147.717041   -3.936943    1.980332
  1.507000000   -0.970257    8.599504  -14.054232 -156.631775  -13.657962 -154.661057   -5.539303   -3.918828
  1.527500000   -0.972065    3.742700  -14.896312 -167.733627  -14.429719 -168.724594   -7.798183   -1.770499
  1.548000000   -0.935836   -0.979136  -16.669013 -172.988754  -16.825670 -174.479507   -8.994877   14.860695
  1.568500000   -0.904541   -6.143457  -18.412568 -170.282272  -18.263810 -166.451813   -7.490380   29.258680
  1.589000000   -0.877921  -11.176105  -18.876361 -160.858490  -18.000174 -161.576904   -5.495702   30.278208
  1.609500000   -0.881727  -16.543438  -18.179056 -157.093826  -18.189289 -162.145248   -4.069279   24.797293
  1.630000000   -0.931501  -21.838375  -18.228484 -157.788834  -18.659166 -156.613892   -3.117232   17.654936
  1.650500000   -0.915486  -27.019463  -17.819400 -152.597458  -17.435301 -149.943939   -2.459370   11.028245
  1.671000000   -0.968079  -32.322777  -16.399723 -151.697693  -15.834223 -154.083359   -2.076995    4.962379
  1.691500000   -1.042326  -37.558189  -15.390784 -159.797882  -15.591204 -163.918427   -1.881549   -1.672089
  1.712000000   -1.081455  -43.097309  -15.761048 -166.090698  -16.132506 -164.739502   -1.736982   -8.386108
  1.732500000   -1.127406  -48.342636  -15.708749 -163.472198  -15.175497 -162.777390   -1.606811  -14.241116
  1.753000000   -1.225450  -53.622219  -14.349171 -166.190140  -13.990118 -169.402100   -1.494396  -19.496700
  1.773500000   -1.352003  -59.083500  -13.612527 -176.310013  -14.053005 -179.892563   -1.478191  -24.827150
  1.794000000   -1.504550  -64.596825  -14.103798  176.072388  -14.341251  178.175507   -1.526907  -30.654596
  1.814500000   -1.706471  -69.935280  -13.964389  175.299103  -13.603042  176.060699   -1.536939  -36.101593
  1.835000000   -1.991351  -74.652977  -13.099845  169.358170  -12.905054  167.171249   -1.523548  -40.941547
  1.855500000   -2.359339  -78.924065  -12.823317  157.926392  -13.135706  156.640259   -1.578752  -45.095673
  1.876000000   -2.738293  -82.427490  -13.545129  149.136490  -13.587826  150.578995   -1.676298  -49.422096
  1.896500000   -2.954009  -84.475090  -14.150023  143.888809  -13.900656  144.053192   -1.699937  -53.743999
  1.917000000   -2.930797  -86.047081  -14.709343  137.671371  -14.534628  136.418671   -1.622730  -57.572552
  1.937500000   -2.727271  -88.185715  -15.767054  133.404831  -15.869375  131.636383   -1.489679  -61.226158
  1.958000000   -2.410249  -92.143204  -16.842185  133.718582  -16.817654  133.820816   -1.351665  -65.420441
  1.978500000   -2.116665  -97.081551  -17.257000  137.879288  -17.238491  136.332367   -1.307270  -70.266617
  1.999000000   -1.901729 -102.079544  -17.235495  139.739853  -17.243837  138.042343   -1.243771  -75.464195
  2.019500000   -1.772636 -107.669159  -17.195769  139.797699  -17.225191  139.837509   -1.184048  -80.263817
  2.040000000   -1.680167 -113.456490  -16.922477  140.623398  -16.969024  140.444580   -1.096103  -84.623230
  2.060500000   -1.585187 -119.391869  -16.389611  140.012192  -16.401924  139.547470   -1.102173  -89.356964
  2.081000000   -1.601577 -124.911774  -16.011428  138.035370  -16.063545  137.165863   -1.113474  -94.370636
  2.101500000   -1.590835 -130.423431  -15.755201  135.398392  -15.897443  135.678558   -1.129499  -99.432388
  2.122000000   -1.645756 -136.328125  -15.486633  133.740891  -15.510114  133.498230   -1.113812 -103.986420
  2.142500000   -1.695997 -142.272827  -15.139153  130.957291  -15.148362  130.719711   -1.071395 -108.110504
  2.163000000   -1.686951 -148.196472  -14.757536  127.702377  -14.848673  127.491081   -1.065239 -112.621071
  2.183500000   -1.721182 -153.883011  -14.455153  125.005928  -14.543922  124.149467   -1.129322 -117.404480
  2.204000000   -1.796241 -160.140884  -14.263485  121.232658  -14.230699  121.283180   -1.167783 -122.051140
  2.224500000   -1.864096 -166.746445  -13.990423  117.992996  -14.029532  117.951004   -1.162429 -126.387978
  2.245000000   -1.956448 -172.980286  -13.656998  114.880219  -13.626379  114.647728   -1.135963 -130.403946
  2.265500000   -2.030625 -179.365448  -13.307733  110.294250  -13.395194  109.765221   -1.215775 -134.909302
  2.286000000   -2.186696  174.000626  -13.240577  105.590126  -13.291604  105.502655   -1.297499 -139.913925
  2.306500000   -2.300998  167.275360  -13.116866  102.579346  -13.071584  102.172165   -1.288065 -144.691772
  2.327000000   -2.485386  160.297043  -12.739518   99.343391  -12.790757   98.261169   -1.293477 -148.825745
  2.347500000   -2.639649  153.484604  -12.373179   94.144218  -12.649758   93.112411   -1.290786 -152.621979
  2.368000000   -2.816769  145.838898  -12.442084   88.269829  -12.537976   89.029778   -1.349281 -157.362213
  2.388500000   -3.056909  138.124268  -12.432016   85.833237  -12.283782   85.912064   -1.429547 -162.115021
  2.409000000   -3.248626  129.920593  -11.860008   82.575989  -12.013555   80.166107   -1.456509 -166.711716
  2.429500000   -3.500082  121.295868  -11.530705   74.821198  -12.101817   74.794456   -1.376665 -170.296539
  2.450000000   -3.784863  112.436523  -11.815055   69.318489  -12.065042   71.725830   -1.430169 -174.036026
  2.470500000   -4.127832  103.211853  -11.947892   67.356201  -11.624594   67.755409   -1.540467 -178.525757
  2.491000000   -4.450740   93.481926  -11.285566   63.458530  -11.573131   60.160820   -1.648942  176.449860
  2.511500000   -4.752406   83.044899  -11.140950   54.541080  -11.818119   55.570015   -1.608805  172.203964
  2.532000000   -5.124731   71.806595  -11.606442   48.433788  -11.664779   53.089897   -1.567453  168.554947
  2.552500000   -5.527827   59.717575  -11.767427   46.731663  -11.191157   47.050079   -1.645437  164.531357
  2.573000000   -5.861347   46.916710  -11.059607   42.147015  -11.361964   38.878433   -1.769700  159.764114
  2.593500000   -6.195892   33.213730  -11.044469   31.079611  -11.774189   34.343708   -1.804947  154.929977
  2.614000000   -6.514552   18.664597  -11.856945   24.892908  -11.552239   30.483845   -1.778405  150.705017
  2.634500000   -6.810651    3.550074  -12.205672   23.792662  -11.517782   21.982483   -1.720497  147.290665
  2.655000000   -6.937891  -11.778645  -11.627688   18.239063  -12.098607   15.668016   -1.748464  142.903305
  2.675500000   -6.996779  -27.194399  -12.031254    7.408612  -12.390503   12.755713   -1.880903  137.598190
  2.696000000   -6.933343  -42.258614  -13.095831    2.802097  -12.273288    5.993276   -1.891651  132.857224
  2.716500000   -6.789803  -57.247093  -13.415348    3.146559  -12.981656   -2.207052   -1.859047  128.814026
  2.737000000   -6.539135  -71.304558  -13.071803   -3.162266  -13.810030   -4.491037   -1.867618  125.187889
  2.757500000   -6.279835  -84.273689  -13.877017  -12.763338  -13.789784   -7.368476   -2.007561  120.465973
  2.778000000   -5.986674  -96.509186  -15.331639  -15.613558  -14.216172  -16.154619   -2.144321  114.617035
  2.798500000   -5.690174 -108.250198  -15.627544  -13.516768  -15.571028  -20.309778   -2.168759  109.599411
  2.819000000   -5.383908 -118.948029  -15.532855  -19.059628  -16.253796  -18.719347   -2.150568  105.350853
  2.839500000   -5.136376 -129.078903  -16.738146  -26.394707  -16.213879  -21.983673   -2.243441  101.065445
  2.860000000   -4.868866 -138.688385  -18.187565  -24.987844  -17.262089  -28.343187   -2.388285   95.470230
  2.880500000   -4.674588 -147.715744  -18.517041  -19.783894  -18.804123  -26.337799   -2.601050   89.385071
  2.901000000   -4.459337 -156.495850  -18.539879  -23.532202  -19.224884  -20.872717   -2.672313   84.319420
  2.921500000   -4.301768 -164.705811  -19.690013  -23.277256  -19.179546  -22.303305   -2.770884   80.010597
  2.942000000   -4.213930 -172.475616  -20.638602  -15.926362  -20.284317  -22.648760   -2.988908   75.453651
  2.962500000   -4.113036  179.879059  -20.240866   -8.210769  -20.893166  -12.644156   -3.329503   69.461914
  2.983000000   -4.038439  172.413010  -19.627100   -8.128270  -19.964173   -4.835084   -3.664084   63.304497
  3.003500000   -3.985833  165.241226  -19.681131   -5.746590  -19.301460   -7.199615   -3.802774   58.019608
  3.024000000   -4.046303  158.918976  -19.044365    0.267817  -19.331921   -5.097179   -4.213142   54.620758
  3.044500000   -4.043329  152.477463  -17.808815    1.972881  -18.525390    2.415730   -4.677855   50.041370
  3.065000000   -4.091890  146.125336  -16.902065   -2.981925  -16.606096    0.701101   -5.294656   44.368256
  3.085500000   -4.218973  140.285309  -16.609842   -4.973810  -16.098784   -9.060194   -5.734803   38.974628
  3.106000000   -4.355446  134.510391  -15.632108   -5.067700  -16.485532   -8.913616   -6.143491   36.114464
  3.126500000   -4.434141  128.832336  -14.528842  -10.968176  -15.499329   -4.895124   -6.663837   34.516148
  3.147000000   -4.614836  123.352509  -14.239062  -18.024969  -13.551601  -13.037858   -7.321445   32.180775
  3.167500000   -4.780431  118.456886  -14.246213  -20.766911  -13.648656  -24.716452   -7.993432   28.238817
  3.188000000   -5.029805  113.469017  -13.561256  -21.475271  -14.405133  -25.714052   -8.358228   25.638865
  3.208500000   -5.267076  109.176376  -12.590235  -29.591990  -13.414355  -22.784321   -8.420900   25.986805
  3.229000000   -5.484008  105.128494  -12.630475  -38.366127  -11.883866  -31.752089   -8.658635   27.304541
  3.249500000   -5.752828  101.207275  -12.986273  -41.292290  -12.103049  -44.456650   -9.006446   27.170904
  3.270000000   -5.982857   97.351860  -12.454731  -41.825581  -13.127048  -46.715057   -9.268057   24.759579
  3.290500000   -6.253577   94.252426  -11.680501  -48.071751  -12.558298  -43.846504   -9.058502   21.755220
  3.311000000   -6.410336   91.713905  -11.659126  -57.831070  -11.233539  -50.623932   -8.559983   20.736139
  3.331500000   -6.566023   88.875809  -12.344357  -61.644382  -11.352758  -62.510040   -8.242493   20.921566
  3.352000000   -6.743010   86.477814  -12.042531  -61.394680  -12.195968  -65.878723   -8.335877   18.928074
  3.372500000   -6.736934   83.997841  -10.984366  -66.012993  -11.840681  -64.260651   -8.220602   13.118841
  3.393000000   -6.782761   82.265884  -10.963377  -77.593666  -10.759447  -70.140633   -7.826649    8.391766
  3.413500000   -6.665719   79.412781  -11.872244  -81.399323  -10.692888  -81.320641   -7.293323    5.270644
  3.434000000   -6.585945   76.652695  -11.734813  -80.223541  -11.508344  -85.487473   -7.042021    2.481418
  3.454500000   -6.481140   72.951569  -10.787417  -85.475037  -11.369093  -85.353088   -7.207615   -2.411733
  3.475000000   -6.490278   69.756462  -10.676179  -96.523140  -10.494099  -90.840584   -7.093350   -9.771232
  3.495500000   -6.346197   66.131599  -11.440377 -102.556984  -10.550704 -101.058075   -6.674124  -15.783073
  3.516000000   -6.212942   62.192478  -11.436894 -101.690620  -11.114063 -105.391548   -6.283340  -19.227913
  3.536500000   -6.182083   58.516449  -10.541265 -105.658737  -11.027349 -106.411140   -6.343464  -22.420353
  3.557000000   -6.160044   53.823788  -10.569424 -116.957329  -10.402219 -112.326736   -6.514668  -29.221691
  3.577500000   -6.132203   49.753895  -11.406758 -121.699875  -10.654735 -121.889053   -6.447129  -38.173016
  3.598000000   -6.102872   45.302414  -11.344123 -122.417931  -11.299367 -125.761322   -6.031516  -43.910271
  3.618500000   -6.150347   40.879444  -10.708378 -127.641495  -11.079172 -127.226006   -5.722979  -46.999695
  3.639000000   -6.177926   36.316170  -10.751091 -137.953217  -10.593307 -132.772003   -5.940672  -52.172630
  3.659500000   -6.350413   31.767948  -11.606486 -141.940109  -10.790005 -141.916122   -6.138187  -60.224190
  3.680000000   -6.454318   27.605839  -11.512209 -142.733704  -11.547193 -146.419342   -5.992012  -68.727867
  3.700500000   -6.600675   22.368181  -11.150991 -148.022858  -11.556659 -147.950470   -5.608437  -73.839996
  3.721000000   -6.790959   17.718449  -11.214382 -157.684448  -11.014849 -152.741058   -5.428062  -77.330559
  3.741500000   -6.906313   12.893543  -12.053254 -162.659012  -11.200750 -162.061310   -5.741910  -82.883133
  3.762000000   -7.207368    7.683403  -12.060701 -163.614120  -12.019414 -167.746429   -6.028827  -91.854675
  3.782500000   -7.478635    3.319002  -11.624182 -167.975067  -12.133521 -169.660294   -5.763629  -99.940369
  3.803000000   -7.832574   -1.125787  -11.836776 -177.902008  -11.905360 -173.741348   -5.275582 -104.455910
