! Anritsu VNA Master:                         Model: MS2036C/2
! SN:                                  2120025
! /bd0/ab_2.s2p
! Existing Calibration Information:
! TYPE:                         Current Settings,       Active Cal Settings
! TIME:             	   03/02/2026 02:53:09 AM,    03/02/2026 02:47:23 AM
! INTERNAL TEMP:    	                   52.8 C,                    51.8 C
! # POINTS:         	                      201,                       201
! START FREQ:       	              400.000 MHz,               400.000 MHz
! STOP FREQ:        	                4.500 GHz,                 4.500 GHz
! SOURCE POWER:     	                     High,                      High
! IFBW:             	                   10 kHz,                    10 kHz
! AVG FACTOR:       	                       1 ,                        1 
! REF PLANE 1:      	                     0 mm,                      0 mm
! REF PLANE 2:      	                     0 mm,                      0 mm
! CAL TYPE:         	              Full 2 Port,               Full 2 Port
! CAL METHOD:       	                     SOLT,                      SOLT
! CAL LINE TYPE:    	                     Coax,                      Coax
! DUT PORT 1:       	                N-Conn(M),                 N-Conn(M)
! DUT PORT 2:       	                N-Conn(M),                 N-Conn(M)
! CAL STATUS:       	        OK: Accuracy High,                        --
# GHZ S DB R 50.0
! FREQ.GHZ       S11DB        S11A       S21DB        S21A       S12DB        S12A       S22DB        S22A
  0.400000000   -0.145915  -88.307137  -29.656948   35.541462  -29.856340   36.016121   -0.136790  -89.546272
  0.420500000   -0.169209  -92.960243  -28.908075   29.880480  -29.206795   29.096302   -0.157490  -94.397209
  0.441000000   -0.169737  -97.581673  -28.969177   24.456192  -28.950431   25.043093   -0.160551  -99.141228
  0.461500000   -0.162212 -102.243492  -28.878915   25.096039  -29.003850   25.025461   -0.169709 -103.814438
  0.482000000   -0.196373 -106.811356  -28.274948   23.424446  -28.286502   24.861181   -0.206110 -108.429123
  0.502500000   -0.199686 -111.480560  -27.323098   18.534346  -27.230096   19.254131   -0.240231 -113.294250
  0.523000000   -0.222092 -116.111984  -27.290021   14.030905  -27.411847   12.478377   -0.240400 -118.056313
  0.543500000   -0.232587 -120.804283  -27.686978   10.696898  -27.608620    9.835457   -0.248127 -122.935799
  0.564000000   -0.249648 -125.514259  -26.903016   10.338949  -26.668829    9.836916   -0.258943 -127.776268
  0.584500000   -0.259734 -130.195175  -26.279254    5.725523  -26.317468    5.826952   -0.300534 -132.399170
  0.605000000   -0.279109 -134.926498  -26.431975    0.488891  -26.455993    1.417772   -0.329926 -137.272980
  0.625500000   -0.286135 -139.683395  -26.261575   -1.058658  -26.158532   -0.188720   -0.333294 -142.202957
  0.646000000   -0.296454 -144.433456  -25.454796   -4.732733  -25.741272   -4.322649   -0.331606 -147.168411
  0.666500000   -0.326227 -149.150055  -25.637975  -10.584117  -25.748234  -11.080039   -0.364750 -151.860779
  0.687000000   -0.355066 -153.913727  -25.989633  -11.080838  -25.928181  -11.584097   -0.414695 -156.699585
  0.707500000   -0.342217 -158.701126  -25.274609  -11.541021  -25.167576  -12.469759   -0.429625 -161.733749
  0.728000000   -0.350984 -163.385757  -24.508878  -18.728779  -24.514712  -17.845852   -0.431709 -166.850830
  0.748500000   -0.392600 -168.393921  -25.091255  -25.206263  -25.109207  -26.142752   -0.435724 -171.660812
  0.769000000   -0.383655 -173.148193  -25.485489  -24.977345  -25.624231  -23.421408   -0.476209 -176.381424
  0.789500000   -0.404624 -177.935883  -24.794000  -23.108065  -24.661107  -23.350945   -0.510536  178.607468
  0.810000000   -0.416940  177.212341  -24.035434  -32.374474  -23.907497  -31.887100   -0.526415  173.334320
  0.830500000   -0.451805  172.450577  -24.818906  -39.775482  -24.831963  -40.704193   -0.542715  168.369705
  0.851000000   -0.446283  167.514618  -25.727740  -36.563690  -25.792867  -38.459499   -0.521560  163.460587
  0.871500000   -0.483196  162.692108  -24.678664  -34.253651  -25.006606  -34.412388   -0.547377  158.524353
  0.892000000   -0.513451  157.552658  -24.212073  -44.214745  -24.035902  -43.465076   -0.602759  153.350357
  0.912500000   -0.512196  152.698196  -24.989728  -53.344284  -25.275663  -53.407490   -0.642582  148.067123
  0.933000000   -0.544739  147.825455  -26.313273  -49.535160  -26.116837  -49.366081   -0.634667  142.921173
  0.953500000   -0.528293  142.777924  -25.673217  -45.550270  -25.522449  -46.875263   -0.639476  137.985428
  0.974000000   -0.576935  137.816193  -25.134971  -54.905502  -25.273492  -53.930634   -0.667751  132.875458
  0.994500000   -0.599212  132.776657  -26.562412  -59.058056  -26.544155  -57.808865   -0.764394  127.525986
  1.015000000   -0.610547  127.748291  -27.683891  -54.144558  -27.477955  -54.449829   -0.774143  122.073074
  1.035500000   -0.634966  122.667412  -27.628295  -51.558880  -27.559502  -50.989697   -0.773304  116.847023
  1.056000000   -0.706014  117.505455  -28.210464  -53.244671  -28.122336  -53.292789   -0.819105  111.661507
  1.076500000   -0.731393  112.247635  -29.616784  -46.541233  -29.882512  -46.917534   -0.894448  106.167786
  1.097000000   -0.803880  106.974564  -29.328566  -30.740366  -29.743240  -27.677334   -1.007849  100.441704
  1.117500000   -0.862781  101.679115  -28.508794  -18.382204  -28.464117  -19.570164   -1.097379   94.610519
  1.138000000   -0.961942   96.284050  -27.460746  -11.787845  -27.138566  -11.137951   -1.190757   89.195946
  1.158500000   -1.097340   91.009048  -25.954845   -0.080567  -25.849408   -0.262709   -1.386847   83.869453
  1.179000000   -1.293075   85.794228  -22.508846    8.503820  -22.587112    9.089191   -1.650981   78.551231
  1.199500000   -1.534218   80.794830  -18.891644   -0.499904  -18.975655    0.469145   -2.001455   73.052742
  1.220000000   -1.806687   76.339653  -17.675606  -14.621418  -17.663064  -13.765627   -2.361768   68.398376
  1.240500000   -2.077780   72.519669  -16.855919  -17.662970  -16.916837  -18.143414   -2.716836   65.220840
  1.261000000   -2.285007   69.382019  -14.621354  -22.287880  -14.709565  -21.567207   -3.030309   63.072174
  1.281500000   -2.384837   66.689674  -12.584112  -38.772400  -12.613804  -38.495644   -3.172267   61.391155
  1.302000000   -2.334262   63.936001  -12.720669  -58.112835  -12.751455  -56.928764   -3.120212   59.135319
  1.322500000   -2.232931   60.722019  -13.677263  -63.374123  -13.596707  -62.379665   -2.879078   56.264156
  1.343000000   -2.063019   56.832703  -12.829738  -64.391434  -12.722815  -64.540359   -2.614200   52.763489
  1.363500000   -1.920149   52.559910  -11.544814  -76.659035  -11.593568  -76.718239   -2.386468   48.909569
  1.384000000   -1.789108   47.701767  -12.151237  -92.373978  -12.249162  -90.976624   -2.223042   43.785774
  1.404500000   -1.656151   42.906765  -13.369092  -94.881828  -13.203619  -93.070839   -2.081712   38.626743
  1.425000000   -1.592024   38.198753  -12.776423  -93.491745  -12.564613  -93.941986   -1.933328   33.344570
  1.445500000   -1.525187   33.235508  -11.885281 -103.437752  -11.928040 -103.922989   -1.831994   28.447910
  1.466000000   -1.471674   28.025497  -12.545962 -114.754707  -12.670271 -113.179489   -1.765567   23.317850
  1.486500000   -1.430885   23.003248  -13.329217 -114.474442  -13.170253 -113.094925   -1.745424   17.718235
  1.507000000   -1.371433   17.896145  -12.619188 -115.750763  -12.359895 -115.755684   -1.741934   11.873075
  1.527500000   -1.377496   12.782681  -12.191407 -125.365845  -12.111931 -126.108734   -1.716514    6.638788
  1.548000000   -1.369399    7.609019  -13.082079 -132.484116  -13.117251 -131.767914   -1.700258    1.367721
  1.568500000   -1.355616    2.382300  -13.249438 -130.929031  -13.127276 -129.888901   -1.699276   -4.150022
  1.589000000   -1.360054   -2.734111  -12.395995 -134.567657  -12.144622 -134.894699   -1.803199   -9.892216
  1.609500000   -1.374518   -8.052970  -12.248107 -145.188507  -12.252434 -146.062714   -1.818968  -15.887465
  1.630000000   -1.395076  -13.232942  -13.310928 -148.888885  -13.367876 -149.150055   -1.867638  -21.634398
  1.650500000   -1.425835  -18.644163  -13.241119 -147.149307  -13.105909 -146.308350   -1.930708  -27.158823
  1.671000000   -1.433508  -23.967005  -12.268647 -152.208817  -12.133828 -152.230606   -2.086175  -32.752937
  1.691500000   -1.447681  -29.317410  -12.488817 -162.171356  -12.349557 -163.408722   -2.234145  -39.222183
  1.712000000   -1.502704  -34.794266  -13.461999 -164.701035  -13.402955 -165.091415   -2.418386  -45.438290
  1.732500000   -1.540848  -40.403736  -13.212468 -163.301682  -13.185626 -163.431702   -2.603231  -51.325993
  1.753000000   -1.599552  -45.744205  -12.513465 -169.177811  -12.462050 -169.856537   -2.845705  -57.522564
  1.773500000   -1.681951  -51.248089  -12.875415 -178.021881  -12.856441 -179.299957   -3.225571  -64.367996
  1.794000000   -1.745776  -56.955265  -13.710355 -179.383163  -13.792580  179.483917   -3.659511  -71.446373
  1.814500000   -1.829343  -62.669594  -13.579212 -179.802643  -13.505829 -179.689835   -4.118762  -78.304756
  1.835000000   -1.921385  -68.790436  -13.428759  175.940964  -13.306961  175.378494   -4.703663  -84.302155
  1.855500000   -2.039117  -74.786072  -13.739098  171.393295  -13.769618  169.931793   -5.519901  -90.452065
  1.876000000   -2.194065  -81.098480  -14.135993  171.064972  -14.276940  170.363754   -6.569154  -97.137222
  1.896500000   -2.355558  -87.567795  -14.025320  170.972244  -13.998053  171.011185   -7.718686 -102.758438
  1.917000000   -2.577095  -93.746849  -13.774605  169.585266  -13.705512  169.019363   -9.080219 -106.259933
  1.937500000   -2.829065 -100.348961  -13.614076  168.417938  -13.745305  167.160233  -10.892820 -106.077827
  1.958000000   -3.094146 -107.040649  -13.243226  167.541458  -13.350029  167.543549  -12.873231 -100.628716
  1.978500000   -3.433928 -114.131592  -12.719651  165.335602  -12.687861  166.025253  -14.439187  -89.495415
  1.999000000   -3.850700 -120.827072  -12.099127  162.357544  -12.114638  162.082962  -14.379739  -75.905037
  2.019500000   -4.336035 -127.788086  -11.563821  158.046890  -11.700729  158.003906  -13.104517  -65.897591
  2.040000000   -4.858804 -134.963699  -11.125223  153.091278  -11.144986  153.766464  -11.524644  -60.902187
  2.060500000   -5.504932 -142.181702  -10.703867  147.798965  -10.609576  147.693970  -10.181781  -59.910061
  2.081000000   -6.239546 -149.129318  -10.301778  141.498901  -10.351854  141.166138   -9.207231  -62.361568
  2.101500000   -7.077315 -155.672272  -10.086861  135.233185  -10.117434  135.342834   -8.322302  -66.513741
  2.122000000   -8.021290 -162.869354  -10.002963  129.118881   -9.951730  129.022812   -7.506328  -71.211823
  2.142500000   -9.060919 -169.770493   -9.858875  123.004646   -9.861744  122.606377   -6.778476  -74.902847
  2.163000000  -10.228994 -177.077072   -9.835236  116.548439   -9.850089  116.408386   -6.292288  -78.675148
  2.183500000  -11.621988  174.737701   -9.786114  110.322655   -9.878392  110.040466   -5.883304  -83.324135
  2.204000000  -13.396147  166.328659   -9.914230  104.452858   -9.925412  104.406815   -5.516843  -88.578934
  2.224500000  -15.807879  155.378662  -10.022796   98.559441  -10.069094   98.491638   -5.094761  -93.591911
  2.245000000  -19.210538  141.718079  -10.233571   93.325867  -10.186559   92.678444   -4.719997  -98.078773
  2.265500000  -24.446289  116.940964  -10.266803   87.686737  -10.332631   87.349411   -4.468675 -102.308868
  2.286000000  -28.684629   44.670650  -10.484946   81.379974  -10.491963   81.217468   -4.278153 -107.694977
  2.306500000  -22.570700  -13.147485  -10.782708   75.761848  -10.754269   75.470230   -4.066593 -113.142555
  2.327000000  -17.870117  -33.338482  -10.987519   71.027740  -11.064771   70.189018   -3.784283 -117.828262
  2.347500000  -14.739500  -46.286449  -11.123845   65.232262  -11.339477   65.046768   -3.570495 -121.831848
  2.368000000  -12.519587  -56.892048  -11.581669   58.588291  -11.598758   59.369801   -3.438366 -126.553581
  2.388500000  -10.839292  -66.342232  -12.181938   53.894127  -12.051135   53.506763   -3.365884 -132.076248
  2.409000000   -9.509605  -75.180237  -12.424459   50.721432  -12.601335   49.507095   -3.194862 -137.308609
  2.429500000   -8.417539  -83.407944  -12.575715   44.550526  -12.935673   45.091610   -2.988897 -141.625626
  2.450000000   -7.536432  -91.228004  -13.313924   38.293224  -13.319870   39.938942   -2.848342 -145.698059
  2.470500000   -6.806341  -98.745621  -14.200430   35.700420  -14.037544   35.301250   -2.827117 -150.362122
  2.491000000   -6.231063 -106.014847  -14.426847   34.764515  -14.614750   32.963089   -2.799031 -156.030945
  2.511500000   -5.704836 -113.168587  -14.685457   28.165600  -14.921938   29.248598   -2.694109 -161.139862
  2.532000000   -5.239793 -119.580902  -15.792548   23.084364  -15.727650   24.106577   -2.540089 -165.202789
  2.552500000   -4.887038 -126.099800  -16.738839   23.319878  -16.551960   22.950417   -2.489291 -169.259933
  2.573000000   -4.577470 -132.281586  -16.856719   23.995123  -16.996324   22.645447   -2.530349 -174.352951
  2.593500000   -4.283476 -138.497665  -17.109751   19.119604  -17.319724   18.624413   -2.525010 -179.983871
  2.614000000   -4.061092 -144.564316  -18.261914   14.703149  -18.160712   15.405845   -2.455836  175.170624
  2.634500000   -3.810452 -150.473663  -19.200822   18.215899  -19.150171   17.681591   -2.342120  171.329468
  2.655000000   -3.657843 -156.132248  -19.045408   20.075626  -19.100915   19.381107   -2.329997  167.297684
  2.675500000   -3.501099 -161.748795  -19.358675   15.597847  -19.375663   15.632316   -2.406460  162.110214
  2.696000000   -3.367282 -167.533142  -20.488036   14.322987  -20.522045   14.076825   -2.419737  156.699341
  2.716500000   -3.266216 -172.960220  -21.206606   21.404188  -21.230266   19.926752   -2.321121  152.471512
  2.737000000   -3.106720 -177.913116  -20.595535   23.099028  -20.703164   23.783857   -2.262395  148.725815
  2.757500000   -3.055886  176.856476  -20.705383   20.296316  -20.760053   20.117107   -2.310989  144.358246
  2.778000000   -2.992531  171.615677  -21.649146   20.740236  -21.708290   20.500019   -2.432611  138.925583
  2.798500000   -2.950628  166.543091  -21.772054   28.778435  -21.939535   28.254591   -2.447990  133.855652
  2.819000000   -2.856672  161.499496  -20.763123   30.488972  -20.992065   30.961739   -2.391753  129.558121
  2.839500000   -2.830543  156.613861  -20.620110   26.546146  -20.708001   26.817919   -2.331127  125.884186
  2.860000000   -2.791053  151.502182  -21.220482   28.323290  -21.391085   28.205725   -2.431224  121.257576
  2.880500000   -2.743212  146.724976  -20.973075   34.564854  -21.195716   35.275734   -2.570606  115.757484
  2.901000000   -2.736918  141.694275  -19.659298   33.754944  -19.791679   34.317345   -2.566778  110.551292
  2.921500000   -2.732001  136.992294  -19.619528   28.858582  -19.632969   28.424988   -2.535515  106.505249
  2.942000000   -2.754493  132.169128  -19.973637   30.039722  -20.316027   30.343243   -2.556211  102.963432
  2.962500000   -2.736535  127.382538  -19.285997   34.648411  -19.373021   36.417358   -2.725525   97.821831
  2.983000000   -2.745112  122.448807  -18.148891   31.518345  -17.890039   32.555492   -2.803168   92.181534
  3.003500000   -2.731498  117.477112  -18.095427   26.350628  -18.020361   25.112289   -2.866955   86.912964
  3.024000000   -2.774675  113.017548  -18.109604   27.918100  -18.464378   28.916637   -2.835368   83.448105
  3.044500000   -2.809264  108.038933  -17.369685   29.057087  -17.161441   32.868385   -2.902885   79.691582
  3.065000000   -2.844365  103.596024  -16.502463   23.242102  -15.949097   23.965696   -3.103476   73.863235
  3.085500000   -2.942713   98.782394  -16.694157   20.335253  -16.536644   18.326172   -3.247692   67.924301
  3.106000000   -2.939956   94.140671  -16.345786   22.966642  -16.861880   22.289627   -3.246127   63.267319
  3.126500000   -2.988196   89.329460  -15.174030   21.017857  -15.247453   26.585630   -3.253816   59.624874
  3.147000000   -3.089195   84.859619  -14.940626   11.400460  -14.042787   14.774787   -3.471483   55.052967
  3.167500000   -3.077971   79.836258  -15.304418   11.250445  -14.966263    6.046046   -3.683526   48.791615
  3.188000000   -3.220386   75.285591  -14.641326   13.966660  -15.151489   12.671546   -3.804203   42.473434
  3.208500000   -3.260502   70.444420  -13.234040    8.442531  -13.422957   14.968995   -3.765371   37.950287
  3.229000000   -3.393493   65.702263  -13.138585   -1.798378  -12.202530    1.622817   -3.875065   34.310825
  3.249500000   -3.508535   61.098099  -13.870468   -2.807395  -13.279857   -7.037149   -4.188895   28.846504
  3.270000000   -3.643276   56.093395  -13.165907    2.709689  -13.712530   -0.879511   -4.512604   22.019907
  3.290500000   -3.713514   51.217232  -11.466991   -4.519756  -11.757063   -0.094995   -4.602417   15.762892
  3.311000000   -3.889078   46.453064  -11.540624  -16.975662  -10.718671  -12.916591   -4.586184   11.215377
  3.331500000   -4.007123   41.664967  -12.402923  -17.246164  -11.652495  -21.626520   -4.791303    7.625856
  3.352000000   -4.146064   36.899986  -11.535874  -13.360861  -12.013619  -16.842661   -5.313868    1.793428
  3.372500000   -4.311015   32.189983  -10.151366  -19.825321  -10.488251  -17.698660   -5.632031   -6.154520
  3.393000000   -4.572779   26.926270  -10.259208  -32.152401   -9.518280  -29.209124   -5.754486  -12.649085
  3.413500000   -4.739318   22.064869  -11.010791  -32.795750  -10.382936  -37.226376   -5.842714  -16.784744
  3.434000000   -4.971832   17.378160  -10.220914  -31.496912  -10.492732  -34.927029   -6.260219  -20.876984
  3.454500000   -5.166832   12.599545   -9.059933  -38.750439   -9.339213  -36.800182   -6.942115  -27.252966
  3.475000000   -5.368135    7.996965   -9.194078  -48.858719   -8.782998  -47.855862   -7.351170  -35.666607
  3.495500000   -5.669932    2.956827   -9.826476  -51.365459   -9.407518  -54.216068   -7.350385  -41.078697
  3.516000000   -5.962806   -1.848571   -9.200467  -51.092617   -9.438703  -53.932182   -7.465027  -44.346050
  3.536500000   -6.182612   -6.664564   -8.362560  -57.908466   -8.448624  -57.405487   -8.110227  -48.400730
  3.557000000   -6.369731  -11.265342   -8.468183  -67.197586   -8.101288  -66.230675   -8.980747  -56.984062
  3.577500000   -6.664701  -16.639952   -8.802946  -70.409691   -8.657712  -72.329979   -9.213897  -64.818535
  3.598000000   -6.953967  -20.828074   -8.338230  -71.993622   -8.604843  -72.922668   -9.225983  -69.148552
  3.618500000   -7.313906  -25.261309   -7.734629  -78.098206   -7.995303  -77.602966   -9.471067  -70.955635
  3.639000000   -7.504427  -29.825481   -7.932969  -86.093063   -7.737186  -85.849800  -10.516380  -75.695938
  3.659500000   -7.788360  -35.257248   -8.125554  -89.304474   -8.068048  -90.869202  -11.214109  -84.241035
  3.680000000   -8.165135  -39.471214   -7.858084  -91.591644   -8.134194  -92.931038  -11.301737  -93.264359
  3.700500000   -8.560051  -44.012840   -7.512661  -98.124519   -7.653009  -96.539742  -10.994207  -94.719749
  3.721000000   -8.844445  -48.259159   -7.545528 -104.465103   -7.419888 -104.227249  -11.529646  -95.520531
  3.741500000   -9.085983  -53.047092   -7.800292 -108.998573   -7.730383 -110.007645  -12.512901  -99.376129
  3.762000000   -9.420333  -57.780537   -7.608594 -112.192497   -7.854602 -112.761787  -13.372233 -110.177338
  3.782500000   -9.901024  -62.353714   -7.370827 -117.054153   -7.491945 -116.677666  -12.731839 -118.675522
  3.803000000  -10.149135  -66.072784   -7.322763 -124.126488   -7.309434 -122.839439  -12.292720 -118.359993
