! Anritsu VNA Master:                         Model: MS2036C/2
! SN:                                  2120025
! /bd0/ab_3.s2p
! Existing Calibration Information:
! TYPE:                         Current Settings,       Active Cal Settings
! TIME:             	   03/02/2026 02:55:04 AM,    03/02/2026 02:47:23 AM
! INTERNAL TEMP:    	                   53.0 C,                    51.8 C
! # POINTS:         	                      201,                       201
! START FREQ:       	              400.000 MHz,               400.000 MHz
! STOP FREQ:        	                4.500 GHz,                 4.500 GHz
! SOURCE POWER:     	                     High,                      High
! IFBW:             	                   10 kHz,                    10 kHz
! AVG FACTOR:       	                       1 ,                        1 
! REF PLANE 1:      	                     0 mm,                      0 mm
! REF PLANE 2:      	                     0 mm,                      0 mm
! CAL TYPE:         	              Full 2 Port,               Full 2 Port
! CAL METHOD:       	                     SOLT,                      SOLT
! CAL LINE TYPE:    	                     Coax,                      Coax
! DUT PORT 1:       	                N-Conn(M),                 N-Conn(M)
! DUT PORT 2:       	                N-Conn(M),                 N-Conn(M)
! CAL STATUS:       	        OK: Accuracy High,                        --
# GHZ S DB R 50.0
! FREQ.GHZ       S11DB        S11A       S21DB        S21A       S12DB        S12A       S22DB        S22A
  0.400000000   -0.174224  -88.648857  -29.812751   35.847908  -29.540330   35.260281   -0.179880  -89.603279
  0.420500000   -0.201175  -93.394272  -29.013291   29.426569  -28.878802   29.128260   -0.201567  -94.407104
  0.441000000   -0.201247  -97.979294  -29.055229   24.790350  -29.042081   24.805378   -0.202216  -99.040993
  0.461500000   -0.192821 -102.714378  -29.123866   24.855783  -28.912390   21.416208   -0.217892 -103.838058
  0.482000000   -0.207887 -107.377762  -28.192038   23.279465  -28.139954   24.013990   -0.252326 -108.512657
  0.502500000   -0.232487 -112.046921  -27.366209   18.631645  -27.473004   16.040989   -0.288006 -113.315857
  0.523000000   -0.248321 -116.741104  -27.497910   11.988039  -27.422748   12.112423   -0.288823 -118.155991
  0.543500000   -0.256338 -121.558296  -27.433751   11.005723  -27.721280   10.850173   -0.298507 -122.986244
  0.564000000   -0.272656 -126.239189  -27.013818   10.238509  -26.880474    8.891198   -0.321069 -127.757362
  0.584500000   -0.298276 -131.112915  -26.121652    5.323498  -26.358893    3.737200   -0.360074 -132.509140
  0.605000000   -0.310154 -135.775818  -26.266496    0.185898  -26.467365    0.412786   -0.387244 -137.471786
  0.625500000   -0.322444 -140.774429  -26.239044   -1.658004  -26.267985   -1.073142   -0.392784 -142.334564
  0.646000000   -0.335335 -145.457489  -25.835466   -4.990848  -25.816880   -5.026751   -0.409835 -147.253204
  0.666500000   -0.349983 -150.408508  -25.711740  -11.206349  -25.710737   -9.989235   -0.434427 -151.978455
  0.687000000   -0.362736 -155.201706  -26.148494  -10.297403  -26.439577  -11.670190   -0.468900 -156.864990
  0.707500000   -0.364296 -160.202072  -25.529495  -11.476735  -25.594425  -13.009206   -0.503256 -161.921417
  0.728000000   -0.387755 -165.065796  -25.153408  -19.405399  -25.000180  -18.845797   -0.494679 -167.032028
  0.748500000   -0.421555 -169.966095  -25.622851  -25.436855  -25.723741  -26.161865   -0.502643 -172.093475
  0.769000000   -0.429230 -175.105850  -26.393511  -23.505877  -26.446170  -25.251827   -0.558864 -176.923279
  0.789500000   -0.443635 -179.975357  -25.557337  -20.928774  -25.517089  -22.776230   -0.604833  178.104828
  0.810000000   -0.452800  174.988968  -25.113152  -32.368256  -25.002312  -29.991899   -0.622690  172.694305
  0.830500000   -0.495874  170.004822  -26.356283  -38.013302  -26.259630  -37.719681   -0.640368  167.605087
  0.851000000   -0.518601  164.863586  -27.582691  -32.343266  -27.544598  -34.139637   -0.645997  162.401657
  0.871500000   -0.558581  159.589722  -27.227368  -27.131062  -27.234743  -27.511593   -0.703619  157.223373
  0.892000000   -0.581921  154.345520  -27.161604  -33.449303  -27.006023  -32.714611   -0.792269  151.922592
  0.912500000   -0.649282  149.068985  -28.767003  -31.748909  -28.712587  -31.075588   -0.872247  146.251373
  0.933000000   -0.726210  143.767593  -30.170026  -14.103185  -30.556718  -13.679430   -0.935208  140.580902
  0.953500000   -0.801291  138.220352  -28.506470    9.391217  -28.762768    9.203086   -1.069891  135.123581
  0.974000000   -0.946265  132.840378  -25.369061   18.016197  -25.560070   17.456957   -1.296462  129.702927
  0.994500000   -1.195850  127.437424  -22.837283   19.021418  -22.748679   18.464262   -1.674759  123.941666
  1.015000000   -1.492206  122.708511  -19.900610   17.861385  -19.832388   17.759890   -2.108627  119.092323
  1.035500000   -1.779078  119.122337  -16.577466    7.774360  -16.507991    6.719976   -2.533092  116.581726
  1.056000000   -1.954819  116.478279  -14.659435  -12.187109  -14.828467  -12.714724   -2.720524  115.831223
  1.076500000   -1.910203  114.111885  -14.524014  -27.767925  -14.662352  -27.057575   -2.604303  114.597244
  1.097000000   -1.707935  110.487755  -14.214044  -36.120941  -14.223328  -35.536068   -2.310299  111.266174
  1.117500000   -1.523381  106.072861  -13.409322  -47.875011  -13.377386  -48.000908   -1.991899  106.886185
  1.138000000   -1.374498  101.129715  -13.894875  -63.078907  -14.040163  -62.670761   -1.741052  101.894958
  1.158500000   -1.273696   96.003922  -15.066800  -67.126289  -15.103680  -65.931709   -1.568367   97.055496
  1.179000000   -1.209645   90.971443  -14.551306  -65.465126  -14.612596  -65.572044   -1.504369   91.866165
  1.199500000   -1.165744   85.680840  -13.483225  -75.943764  -13.540623  -75.662750   -1.462470   86.288330
  1.220000000   -1.121345   80.493660  -14.322238  -89.602562  -14.450402  -89.241837   -1.404959   80.677109
  1.240500000   -1.115077   75.287903  -15.792109  -88.909172  -15.742484  -88.134750   -1.338728   75.547951
  1.261000000   -1.109865   69.886986  -14.962617  -84.041336  -14.847813  -84.061607   -1.333126   70.186234
  1.281500000   -1.109456   64.664963  -13.412718  -94.035881  -13.586887  -94.416260   -1.357960   64.801865
  1.302000000   -1.110055   59.482677  -14.235716 -108.696686  -14.413182 -107.051178   -1.410700   58.931946
  1.322500000   -1.120022   54.074989  -15.709327 -106.715485  -15.643583 -104.941498   -1.432125   53.316910
  1.343000000   -1.149400   48.734634  -14.767176 -101.844368  -14.590972 -102.085457   -1.437634   48.076935
  1.363500000   -1.178315   43.265934  -13.342283 -111.086502  -13.430800 -111.739159   -1.489046   42.568150
  1.384000000   -1.227140   37.725349  -14.122104 -124.339958  -14.248406 -122.604515   -1.626229   36.631168
  1.404500000   -1.252919   32.142311  -15.217609 -122.694283  -15.050165 -120.897583   -1.784740   30.469622
  1.425000000   -1.347577   26.619093  -14.363807 -120.343056  -14.144196 -120.761963   -1.951717   24.368050
  1.445500000   -1.424416   20.899424  -13.582874 -129.268112  -13.561138 -130.047562   -2.209923   18.700174
  1.466000000   -1.523312   14.926752  -14.338583 -138.115189  -14.398862 -137.030060   -2.569525   12.612296
  1.486500000   -1.645049    8.954544  -14.912500 -136.401001  -14.807711 -134.601547   -3.106246    6.537857
  1.507000000   -1.784002    2.819860  -14.213231 -137.036880  -13.881399 -136.624832   -3.797820    0.466192
  1.527500000   -2.056832   -3.305503  -13.959078 -142.596664  -13.773522 -144.516586   -4.646255   -3.338902
  1.548000000   -2.338600   -9.818110  -14.230705 -145.211700  -14.363737 -145.005112   -5.625328   -4.133851
  1.568500000   -2.718843  -16.392048  -13.703846 -143.687286  -13.477451 -141.481613   -6.443985   -1.782510
  1.589000000   -3.203937  -22.618317  -12.424995 -146.214859  -11.952200 -147.739151   -6.742608    1.935172
  1.609500000   -3.809601  -28.980036  -11.449949 -155.310257  -11.537611 -158.407608   -6.374674    4.527163
  1.630000000   -4.609472  -34.966148  -11.325282 -164.496674  -11.575758 -163.035110   -5.713090    4.333255
  1.650500000   -5.617991  -40.278664  -11.062866 -169.417862  -10.693058 -168.129440   -5.063229    2.839921
  1.671000000   -6.826651  -43.735538  -10.123480 -176.820084   -9.906104  179.874649   -4.594505    0.060207
  1.691500000   -8.317048  -44.926327   -9.687980  169.116501  -10.116613  167.079605   -4.299713   -3.990808
  1.712000000   -9.911706  -40.800732  -10.491243  156.987671  -10.552294  159.090424   -4.046071   -8.211473
  1.732500000  -10.940619  -30.797825  -11.032422  151.595291  -10.701813  151.179321   -3.687213  -11.823590
  1.753000000  -10.594218  -18.496645  -10.838368  143.699738  -10.891989  141.509705   -3.365764  -15.461471
  1.773500000   -9.360840  -11.039296  -11.158338  130.279587  -11.412943  130.775345   -3.125405  -19.187262
  1.794000000   -7.874149   -9.418765  -12.599870  119.488747  -12.493263  121.275993   -2.935505  -23.955465
  1.814500000   -6.584051  -11.112437  -13.812015  116.918617  -13.552727  115.674255   -2.678968  -28.999136
  1.835000000   -5.519738  -15.138559  -14.256062  111.776558  -14.268695  110.591797   -2.421826  -33.674316
  1.855500000   -4.654604  -20.266113  -15.092910  103.725258  -15.134547  103.348740   -2.225543  -37.754738
  1.876000000   -4.029176  -25.984192  -16.653323   97.938011  -16.541805   97.687096   -2.100067  -42.531738
  1.896500000   -3.518711  -31.596649  -17.765439   96.655342  -17.675024   96.757645   -1.963680  -47.909222
  1.917000000   -3.102997  -37.400261  -18.535558   95.261200  -18.542415   93.552536   -1.858286  -52.902737
  1.937500000   -2.761204  -43.250946  -19.618559   91.185349  -19.623040   90.811058   -1.694688  -57.450191
  1.958000000   -2.500876  -48.603558  -20.991857   90.808792  -20.983532   89.953110   -1.579615  -61.838608
  1.978500000   -2.270207  -54.031590  -21.906105   92.927032  -22.051055   92.918007   -1.529796  -66.879646
  1.999000000   -2.100861  -59.561611  -22.883617   94.093605  -22.877315   94.528152   -1.515915  -72.268318
  2.019500000   -1.932365  -64.746071  -23.837400   96.845650  -23.795703   96.368126   -1.427130  -77.011391
  2.040000000   -1.805334  -70.013641  -24.735178  102.049118  -24.534874  101.998528   -1.368094  -81.525032
  2.060500000   -1.691644  -75.031265  -24.791837  106.842209  -24.848489  106.529465   -1.316258  -86.037247
  2.081000000   -1.616493  -80.143089  -24.802355  111.193077  -24.944333  111.306137   -1.310863  -90.975311
  2.101500000   -1.535699  -85.125168  -24.954121  116.297768  -25.103727  115.117638   -1.301129  -96.240868
  2.122000000   -1.482519  -89.957008  -24.723162  118.802971  -24.706082  119.268982   -1.239733 -100.990494
  2.142500000   -1.454790  -94.909401  -24.298804  122.366814  -24.387333  122.224197   -1.220351 -105.101158
  2.163000000   -1.392066  -99.752693  -23.916592  123.505081  -23.929698  123.932976   -1.201933 -109.528694
  2.183500000   -1.349497 -104.452744  -23.383361  124.290070  -23.666288  124.363876   -1.246980 -114.797829
  2.204000000   -1.324876 -108.936241  -22.971430  125.165031  -23.132487  124.642212   -1.264727 -119.511055
  2.224500000   -1.294019 -113.798233  -22.629971  125.261887  -22.625050  125.212555   -1.244870 -123.742195
  2.245000000   -1.295757 -118.287361  -22.014712  124.505348  -22.174840  125.232979   -1.239904 -127.928757
  2.265500000   -1.284530 -122.927887  -21.504901  123.344963  -21.616418  122.768852   -1.265212 -132.328598
  2.286000000   -1.276888 -127.441437  -21.255431  121.515511  -21.269424  120.910042   -1.335235 -137.473175
  2.306500000   -1.239916 -131.932159  -20.961236  121.363319  -20.928196  120.133003   -1.315496 -142.328766
  2.327000000   -1.270028 -136.396469  -20.357722  119.713890  -20.446031  119.860558   -1.289276 -146.283920
  2.347500000   -1.249277 -140.798401  -19.898008  116.969254  -20.071302  116.260635   -1.294269 -150.304703
  2.368000000   -1.262846 -145.239960  -19.831498  113.786041  -19.840282  113.474472   -1.367840 -155.137390
  2.388500000   -1.237536 -149.707291  -19.608156  113.245911  -19.563503  112.398712   -1.413049 -160.087021
  2.409000000   -1.269201 -154.082718  -18.952079  111.786560  -18.996378  110.983093   -1.442335 -164.742661
  2.429500000   -1.290905 -158.606552  -18.445939  106.935379  -18.574546  106.277893   -1.384650 -168.611267
  2.450000000   -1.273895 -162.845978  -18.468239  103.356750  -18.488345  102.592659   -1.408895 -172.506332
  2.470500000   -1.303880 -167.256775  -18.429982  103.454323  -18.388216  103.143257   -1.496232 -177.199554
  2.491000000   -1.334048 -171.479675  -17.601779  102.484970  -17.705545  101.218651   -1.587112  177.748886
  2.511500000   -1.343659 -176.011383  -17.106781   95.532074  -17.414270   95.582954   -1.576418  173.111771
  2.532000000   -1.315847  179.779129  -17.359379   92.129807  -17.432333   92.340096   -1.555630  169.401855
  2.552500000   -1.387789  175.360748  -17.311361   93.009285  -17.163276   93.049309   -1.593906  165.176834
  2.573000000   -1.450139  171.221069  -16.272200   90.488029  -16.278384   89.899773   -1.730218  160.391510
  2.593500000   -1.475279  166.861923  -15.905313   82.917740  -16.193933   82.672134   -1.810034  155.236984
  2.614000000   -1.505770  162.507965  -16.363259   79.449425  -16.543614   79.790672   -1.806451  151.003830
  2.634500000   -1.550589  158.210205  -16.088485   80.671013  -16.139272   81.893959   -1.763608  147.279266
  2.655000000   -1.618020  154.196106  -15.142911   77.827179  -15.025321   76.960045   -1.881355  142.807068
  2.675500000   -1.657800  149.746048  -14.882747   69.505211  -15.135274   68.939667   -2.055665  137.708221
  2.696000000   -1.694047  145.131516  -15.353806   66.789001  -15.637461   67.732201   -2.130587  132.576065
  2.716500000   -1.748113  140.992676  -14.905281   68.645363  -14.947316   69.834679   -2.129263  128.519043
  2.737000000   -1.816775  136.907944  -13.810751   63.621716  -13.793235   63.447567   -2.168381  125.083565
  2.757500000   -1.898836  132.819626  -13.781328   55.428341  -13.975384   55.020386   -2.311942  120.666290
  2.778000000   -1.979807  128.426025  -14.331614   53.107845  -14.545720   54.032066   -2.532733  115.015152
  2.798500000   -2.059666  124.074852  -13.750767   54.566902  -13.787086   55.991688   -2.644505  110.246284
  2.819000000   -2.136136  119.905312  -12.712149   48.148495  -12.674743   48.187325   -2.658427  106.456024
  2.839500000   -2.226734  115.851524  -12.812530   39.433472  -13.035460   39.414455   -2.787295  102.739380
  2.860000000   -2.360273  111.605888  -13.342210   38.033871  -13.540156   39.509762   -2.986168   97.749603
  2.880500000   -2.469002  107.278313  -12.624463   38.618080  -12.540222   40.875530   -3.186690   92.268143
  2.901000000   -2.583738  102.991447  -11.730857   31.094675  -11.592970   31.437376   -3.291193   87.673248
  2.921500000   -2.724257   99.067772  -11.951602   23.105625  -12.177876   23.186628   -3.380723   84.434502
  2.942000000   -2.837097   95.062073  -12.189997   22.000561  -12.495393   24.134823   -3.609359   80.601692
  2.962500000   -3.010920   90.900467  -11.478801   20.111086  -11.302779   22.758410   -3.922195   75.921043
  2.983000000   -3.111739   86.783875  -10.885662   12.016753  -10.580031   11.516413   -4.163896   70.459839
  3.003500000   -3.314573   82.929520  -11.236054    5.147084  -11.350391    4.587226   -4.340726   66.737709
  3.024000000   -3.521062   79.072495  -11.264496    2.950182  -11.611371    6.308601   -4.497636   64.016174
  3.044500000   -3.597832   75.247833  -10.666476   -0.558024  -10.258894    2.551460   -4.738104   60.705002
  3.065000000   -3.753607   71.958847  -10.500635   -9.172788   -9.875911  -10.396049   -5.129713   56.026333
  3.085500000   -3.911933   68.316719  -10.896035  -14.578194  -10.957579  -16.391478   -5.310533   51.179695
  3.106000000   -4.064867   64.761444  -10.748630  -15.712566  -11.033327  -13.223235   -5.401741   48.058331
  3.126500000   -4.186387   61.600262  -10.116161  -21.378042   -9.696108  -17.742905   -5.490167   46.025631
  3.147000000   -4.308526   58.112484  -10.202351  -31.196890   -9.555804  -31.681057   -5.791526   43.324383
  3.167500000   -4.388859   54.257263  -10.903384  -34.618507  -10.850428  -37.679207   -6.092628   38.532951
  3.188000000   -4.546562   51.005753  -10.522667  -35.183380  -10.920824  -33.880257   -6.141786   33.879604
  3.208500000   -4.663751   47.655865   -9.740872  -42.204212   -9.473159  -39.133312   -6.082406   31.535616
  3.229000000   -4.682375   44.360619  -10.091188  -52.818691   -9.330383  -53.287308   -6.109632   30.498219
  3.249500000   -4.777263   40.304012  -11.054863  -56.285931  -10.759420  -59.314190   -6.386949   26.716597
  3.270000000   -4.811463   36.955360  -10.760730  -55.577374  -10.945330  -55.617558   -6.603203   21.535261
  3.290500000   -4.890620   33.049412   -9.780598  -62.771748   -9.661938  -59.388611   -6.480256   16.431458
  3.311000000   -4.896442   29.919350  -10.140561  -74.997643   -9.477389  -74.266602   -6.267290   14.248262
  3.331500000   -4.908700   25.932484  -11.302454  -78.212288  -10.897829  -81.189331   -6.283899   12.201031
  3.352000000   -4.935671   22.192141  -11.082447  -76.580162  -11.209022  -77.984459   -6.422369    8.451344
  3.372500000   -4.958781   17.603094  -10.109239  -83.600906  -10.190545  -81.695198   -6.621594    1.568243
  3.393000000   -4.946866   13.784642  -10.607634  -95.400070  -10.133073  -94.886475   -6.388111   -3.803483
  3.413500000   -4.974850    9.486092  -11.822162  -98.482498  -11.401651 -101.729500   -6.028051   -6.939071
  3.434000000   -4.955007    5.296888  -11.669431  -96.606506  -11.875105  -99.178322   -6.113018   -9.425042
  3.454500000   -4.949925    0.334594  -10.884364 -103.869675  -10.971893 -103.926804   -6.372371  -15.149624
  3.475000000   -4.972116   -4.043822  -11.184834 -115.372879  -11.094299 -115.733528   -6.422199  -22.565710
  3.495500000   -4.986298   -9.125826  -12.413296 -119.065430  -12.235932 -121.544075   -6.132612  -27.793123
  3.516000000   -5.044258  -13.671648  -12.587703 -118.375809  -12.627600 -120.553482   -5.843713  -31.536732
  3.536500000   -5.080792  -19.200970  -11.898062 -124.466522  -12.088078 -125.150269   -6.018337  -34.993156
  3.557000000   -5.063312  -24.263195  -12.264448 -135.730301  -12.133648 -135.553299   -6.326163  -42.523132
  3.577500000   -5.141594  -29.696686  -13.249534 -138.887497  -13.238367 -140.475601   -6.274951  -50.584805
  3.598000000   -5.132275  -34.204296  -13.254166 -138.765549  -13.512723 -140.763977   -5.862197  -56.221241
  3.618500000   -5.166759  -40.076031  -12.959765 -146.010422  -13.088806 -146.094223   -5.787668  -59.026085
  3.639000000   -5.317423  -45.754318  -13.565650 -155.928238  -13.563895 -155.152756   -6.131688  -64.254784
  3.659500000   -5.392459  -51.031075  -14.524832 -159.244995  -14.595740 -159.402679   -6.458479  -72.678986
  3.680000000   -5.481878  -56.829720  -14.585376 -160.238663  -15.001583 -161.175003   -6.319172  -80.876495
  3.700500000   -5.521627  -62.849953  -14.473961 -166.148163  -14.731902 -166.847061   -5.969359  -84.768211
  3.721000000   -5.645085  -68.852463  -15.335735 -175.563965  -15.129260 -174.349869   -5.860190  -88.367661
  3.741500000   -5.860073  -74.475792  -16.212773 -179.584015  -16.185066  179.487915   -6.303054  -94.259987
  3.762000000   -5.860643  -80.373024  -16.514882  179.052780  -16.905046  177.927505   -6.583990 -103.318985
  3.782500000   -5.965040  -85.830948  -16.639898  173.245255  -16.754469  173.383957   -6.348444 -111.186111
  3.803000000   -6.088891  -91.943039  -17.304405  164.297394  -17.195750  166.628357   -5.865327 -114.220055
