! Anritsu VNA Master:                         Model: MS2036C/2
! SN:                                  2120025
! /bd0/ab_6.s2p
! Existing Calibration Information:
! TYPE:                         Current Settings,       Active Cal Settings
! TIME:             	   03/02/2026 03:08:19 AM,    03/02/2026 02:47:23 AM
! INTERNAL TEMP:    	                   54.3 C,                    51.8 C
! # POINTS:         	                      201,                       201
! START FREQ:       	              400.000 MHz,               400.000 MHz
! STOP FREQ:        	                4.500 GHz,                 4.500 GHz
! SOURCE POWER:     	                     High,                      High
! IFBW:             	                   10 kHz,                    10 kHz
! AVG FACTOR:       	                       1 ,                        1 
! REF PLANE 1:      	                     0 mm,                      0 mm
! REF PLANE 2:      	                     0 mm,                      0 mm
! CAL TYPE:         	              Full 2 Port,               Full 2 Port
! CAL METHOD:       	                     SOLT,                      SOLT
! CAL LINE TYPE:    	                     Coax,                      Coax
! DUT PORT 1:       	                N-Conn(M),                 N-Conn(M)
! DUT PORT 2:       	                N-Conn(M),                 N-Conn(M)
! CAL STATUS:       	        OK: Accuracy High,                        --
# GHZ S DB R 50.0
! FREQ.GHZ       S11DB        S11A       S21DB        S21A       S12DB        S12A       S22DB        S22A
  0.400000000   -0.169723  -88.838280  -29.743070   34.490883  -29.847697   37.684795   -0.168982  -89.565559
  0.420500000   -0.203855  -93.456070  -28.894914   30.351547  -28.804938   29.231936   -0.177089  -94.323570
  0.441000000   -0.189810  -98.023842  -29.058964   25.737162  -29.069613   24.135206   -0.179183  -99.053627
  0.461500000   -0.205905 -102.742836  -29.310956   24.591944  -28.894175   25.180950   -0.200194 -103.663979
  0.482000000   -0.221343 -107.451523  -28.051762   24.927225  -28.172502   24.516466   -0.240310 -108.480919
  0.502500000   -0.231827 -112.152428  -27.335029   18.314125  -27.561386   18.209076   -0.271029 -113.309608
  0.523000000   -0.238475 -116.869621  -27.433292   12.801452  -27.323343   11.690982   -0.279848 -118.038620
  0.543500000   -0.262087 -121.542244  -27.529789   11.085803  -27.401548   11.048751   -0.271828 -122.898323
  0.564000000   -0.274427 -126.433273  -27.170580   10.524070  -26.900576    8.270490   -0.290338 -127.808067
  0.584500000   -0.294281 -131.225708  -26.113549    6.043078  -26.501379    4.789876   -0.320765 -132.414001
  0.605000000   -0.306162 -135.998627  -26.295069   -0.440689  -26.645741   -0.435813   -0.333134 -137.405823
  0.625500000   -0.316359 -140.884491  -26.194434   -1.512381  -26.258511   -1.118016   -0.352163 -142.249542
  0.646000000   -0.338733 -145.823334  -25.818798   -5.212966  -25.691714   -5.734932   -0.365205 -147.156906
  0.666500000   -0.363716 -150.615158  -25.878772   -8.486861  -25.997893  -11.031363   -0.399138 -151.934509
  0.687000000   -0.370290 -155.458267  -26.033438  -12.234247  -25.975169  -12.048484   -0.419573 -156.800522
  0.707500000   -0.368668 -160.480545  -25.662471  -12.174008  -25.438722  -13.304791   -0.463375 -161.857773
  0.728000000   -0.385642 -165.410919  -25.106553  -18.653978  -25.015755  -18.749662   -0.463080 -166.977737
  0.748500000   -0.426672 -170.242218  -25.579855  -24.862923  -25.757977  -25.981819   -0.487686 -171.991882
  0.769000000   -0.425439 -175.420593  -26.440009  -23.830589  -26.267184  -24.396263   -0.523761 -176.992325
  0.789500000   -0.439971  179.628250  -25.687667  -22.978395  -25.442912  -23.217766   -0.556876  178.075089
  0.810000000   -0.461129  174.648575  -25.387781  -31.302986  -25.249060  -31.693624   -0.574983  172.680847
  0.830500000   -0.514123  169.544327  -26.455664  -38.893494  -26.577962  -37.261898   -0.604068  167.612625
  0.851000000   -0.526292  164.371063  -27.638042  -34.520851  -27.724038  -33.535744   -0.606003  162.394775
  0.871500000   -0.553848  159.140396  -27.587569  -25.104393  -27.489233  -28.830074   -0.646212  157.303177
  0.892000000   -0.597876  153.938110  -27.545983  -28.554451  -27.660303  -28.540377   -0.739033  151.796326
  0.912500000   -0.651617  148.253906  -29.815227  -27.801317  -29.790925  -27.753317   -0.837507  145.945160
  0.933000000   -0.751067  142.822128  -30.548933   -2.050811  -30.979263   -1.088445   -0.911531  140.410294
  0.953500000   -0.863962  137.210999  -28.104184   24.382729  -27.950834   23.065025   -1.079113  134.718613
  0.974000000   -1.092869  131.595581  -23.631028   27.887915  -23.573176   27.642113   -1.387739  129.150574
  0.994500000   -1.417166  126.509682  -20.360376   21.022804  -20.424444   21.104315   -1.915529  123.958000
  1.015000000   -1.793324  122.868530  -17.495578   13.776189  -17.534678   13.185890   -2.439434  120.435181
  1.035500000   -2.010504  120.800613  -14.844815   -1.852519  -14.854456   -2.371075   -2.661958  119.886665
  1.056000000   -1.927510  118.771881  -13.768610  -23.941730  -13.869743  -23.973118   -2.457960  119.459724
  1.076500000   -1.689895  115.477516  -14.218891  -38.741993  -14.418142  -38.043568   -2.132414  116.478615
  1.097000000   -1.460483  110.867546  -14.428562  -44.928322  -14.414962  -44.684990   -1.836202  111.813446
  1.117500000   -1.288397  105.900520  -13.745552  -55.415871  -13.749498  -55.490070   -1.594545  106.520241
  1.138000000   -1.205738  100.548561  -14.343604  -69.405663  -14.364579  -68.557388   -1.409770  101.368965
  1.158500000   -1.117928   95.377235  -15.639575  -71.941071  -15.632935  -70.661049   -1.295803   96.297401
  1.179000000   -1.067065   90.085236  -15.126260  -69.306015  -15.052651  -69.333237   -1.253287   90.960884
  1.199500000   -1.037433   84.755363  -13.915447  -79.023438  -13.991936  -79.367989   -1.231899   85.295265
  1.220000000   -1.003505   79.419014  -14.846980  -93.167549  -14.975594  -91.654274   -1.205310   79.834381
  1.240500000   -1.001202   74.221748  -16.355140  -91.311707  -16.273176  -89.888649   -1.142187   74.714951
  1.261000000   -1.005394   68.828918  -15.444633  -85.935417  -15.318419  -86.041725   -1.154526   69.475403
  1.281500000   -1.014985   63.542137  -13.909321  -96.301445  -14.020332  -96.217072   -1.174275   64.018593
  1.302000000   -1.008609   58.356869  -14.819612 -110.895462  -14.988349 -108.753654   -1.218080   58.357937
  1.322500000   -1.012197   52.988998  -16.321753 -107.895119  -16.188553 -106.076431   -1.195733   52.867870
  1.343000000   -1.062822   47.754551  -15.380326 -102.426407  -15.147933 -102.769516   -1.215536   47.683594
  1.363500000   -1.079702   42.109043  -13.953496 -111.862831  -13.984028 -112.645981   -1.239209   42.193291
  1.384000000   -1.110395   36.523319  -14.718331 -125.284660  -14.881705 -123.039726   -1.313944   36.328037
  1.404500000   -1.153421   31.058611  -15.875608 -123.034393  -15.681154 -121.000298   -1.406446   30.271904
  1.425000000   -1.234172   25.625097  -15.019581 -120.212273  -14.731604 -120.247459   -1.503474   24.511131
  1.445500000   -1.297214   19.819105  -14.136564 -129.001434  -14.212162 -129.888977   -1.611694   18.856459
  1.466000000   -1.374059   13.650826  -15.033136 -137.946030  -15.155222 -136.308243   -1.774368   12.595282
  1.486500000   -1.471737    7.832639  -15.730631 -135.218582  -15.497061 -133.484314   -2.035955    6.118352
  1.507000000   -1.612135    1.734378  -14.964677 -135.546844  -14.653697 -135.707138   -2.385280   -0.975818
  1.527500000   -1.811622   -4.631486  -14.844890 -142.135818  -14.739830 -143.501694   -2.838009   -7.714943
  1.548000000   -2.053435  -11.115034  -15.617751 -143.560730  -15.673719 -143.050140   -3.473079  -13.804464
  1.568500000   -2.394006  -17.755400  -15.255848 -138.150436  -15.041115 -136.811432   -4.387450  -19.541468
  1.589000000   -2.870972  -24.153553  -13.923512 -137.919510  -13.585876 -138.380432   -5.625262  -23.915352
  1.609500000   -3.427654  -30.747353  -12.903342 -142.588562  -12.910068 -144.714462   -6.915107  -24.900007
  1.630000000   -4.143174  -36.582718  -12.101104 -146.688782  -12.322978 -146.348465   -7.894681  -20.728951
  1.650500000   -5.015031  -42.021267  -10.936962 -152.197952  -10.718493 -150.823410   -8.131963  -13.598305
  1.671000000   -6.041995  -46.197960   -9.696797 -161.313736   -9.391930 -163.049500   -7.779546   -8.340399
  1.691500000   -7.244353  -49.090229   -9.004275 -174.922165   -9.218160 -177.001678   -7.180764   -7.695023
  1.712000000   -8.610064  -49.290424   -9.219652  172.644073   -9.335049  174.111328   -6.633713   -9.030524
  1.732500000  -10.010962  -45.429356   -9.360509  165.039856   -9.094245  164.976791   -6.032356  -11.040642
  1.753000000  -10.951339  -35.832489   -9.022303  155.424973   -8.964236  153.206390   -5.490249  -12.682757
  1.773500000  -10.822429  -24.333233   -9.103706  141.548019   -9.313667  140.648102   -5.073508  -14.948507
  1.794000000   -9.588151  -16.505154  -10.141504  129.035370  -10.153417  129.934662   -4.650548  -18.427708
  1.814500000   -8.096194  -14.358427  -11.117725  122.337418  -10.884397  121.991577   -4.141993  -22.722698
  1.835000000   -6.711071  -15.793443  -11.540333  115.315216  -11.574002  114.222870   -3.621397  -26.649534
  1.855500000   -5.584670  -19.860565  -12.317964  104.442551  -12.369257  104.332596   -3.175860  -30.889555
  1.876000000   -4.728740  -24.812635  -13.783218   96.491760  -13.785847   96.400604   -2.861685  -35.956150
  1.896500000   -4.027375  -30.656242  -15.055723   92.831779  -15.007499   92.802528   -2.600281  -41.360714
  1.917000000   -3.460672  -36.601311  -15.918562   88.814095  -15.898751   87.920486   -2.355826  -46.965824
  1.937500000   -3.051963  -42.373081  -17.115053   83.665482  -17.178156   82.787468   -2.097026  -51.889946
  1.958000000   -2.722045  -48.218426  -18.529033   80.888535  -18.650323   80.962791   -1.912168  -56.690395
  1.978500000   -2.441915  -54.032848  -19.870404   81.059608  -19.712300   80.645126   -1.829530  -61.985710
  1.999000000   -2.222565  -59.889839  -20.904604   80.015831  -20.796971   79.735962   -1.745039  -67.726898
  2.019500000   -2.017009  -65.327698  -22.101481   80.633324  -22.188358   79.921150   -1.635242  -72.879791
  2.040000000   -1.895684  -70.524025  -23.473230   84.101921  -23.316217   84.099243   -1.523638  -77.443573
  2.060500000   -1.786868  -75.906265  -24.192121   88.746994  -24.171276   87.732468   -1.487729  -82.375862
  2.081000000   -1.671123  -81.244858  -24.730844   92.385826  -24.923895   92.491325   -1.444335  -87.746803
  2.101500000   -1.605703  -86.172684  -25.359637   99.344193  -25.484385   99.405426   -1.444466  -92.905968
  2.122000000   -1.538644  -91.210709  -25.443253  106.286461  -25.479410  104.675858   -1.381648  -97.661568
  2.142500000   -1.490392  -95.966049  -25.439025  112.236824  -25.226893  111.434509   -1.308480 -101.877037
  2.163000000   -1.438906 -101.044647  -24.869758  114.965538  -24.890716  114.389061   -1.323456 -106.480377
  2.183500000   -1.374254 -105.880302  -24.111556  118.994774  -24.379990  118.050392   -1.313408 -111.657860
  2.204000000   -1.348089 -110.658997  -23.806386  120.191452  -23.835290  119.228035   -1.317280 -116.595261
  2.224500000   -1.352769 -115.345337  -23.361346  120.235634  -23.247973  121.115509   -1.268113 -121.049789
  2.245000000   -1.293333 -119.982849  -22.626705  121.729462  -22.698038  122.795380   -1.219222 -125.254662
  2.265500000   -1.294839 -124.657990  -22.022718  120.632202  -21.968075  120.361595   -1.295899 -129.930099
  2.286000000   -1.278027 -129.095444  -21.626508  119.314720  -21.676855  118.775223   -1.305202 -135.013184
  2.306500000   -1.287295 -133.715805  -21.419369  117.710251  -21.194737  118.316444   -1.308949 -140.036880
  2.327000000   -1.303635 -138.186356  -20.636844  118.002457  -20.652799  117.390350   -1.282603 -144.124664
  2.347500000   -1.283926 -142.768753  -20.132063  114.891747  -20.260738  113.963783   -1.282930 -148.268524
  2.368000000   -1.288109 -147.125366  -19.930775  111.623039  -19.939550  111.646309   -1.353349 -153.004776
  2.388500000   -1.297333 -151.589569  -19.683406  111.035965  -19.741248  110.779778   -1.404237 -158.138199
  2.409000000   -1.370192 -156.212143  -18.999107  109.956787  -19.041585  109.358017   -1.412225 -162.821609
  2.429500000   -1.349654 -160.695007  -18.384890  104.922653  -18.536867  105.108589   -1.375151 -166.660202
  2.450000000   -1.342857 -165.064301  -18.426745  102.120483  -18.449679  102.159233   -1.364743 -170.594040
  2.470500000   -1.375641 -169.364594  -18.339046  101.948372  -18.298915  101.701355   -1.487530 -175.356354
  2.491000000   -1.405135 -173.535156  -17.455733  100.782654  -17.513042   99.206009   -1.563880  179.399857
  2.511500000   -1.436814 -178.241394  -16.906638   93.802116  -17.199150   93.543541   -1.557410  174.752365
  2.532000000   -1.472370  177.373337  -17.173074   89.990005  -17.238813   90.787476   -1.495789  171.111145
  2.552500000   -1.480628  173.118500  -17.022696   91.060654  -16.981106   91.205635   -1.597273  166.965714
  2.573000000   -1.505551  168.747986  -16.003124   89.128662  -16.004659   87.478767   -1.695729  161.618332
  2.593500000   -1.577025  164.396820  -15.617884   81.074799  -15.860890   80.149887   -1.814289  156.373337
  2.614000000   -1.621330  159.868942  -15.897108   76.777260  -16.213604   78.085793   -1.798159  152.085098
  2.634500000   -1.659776  155.679932  -15.772906   78.541260  -15.665665   79.481491   -1.764308  148.439758
  2.655000000   -1.722626  151.086319  -14.606597   74.954559  -14.653967   74.337517   -1.897534  143.869125
  2.675500000   -1.811460  146.789993  -14.443058   66.761223  -14.667860   66.117470   -2.060684  138.777679
  2.696000000   -1.908571  142.544174  -14.848372   63.849209  -15.119932   64.752403   -2.123669  133.503067
  2.716500000   -1.928686  137.935196  -14.456662   65.100090  -14.414634   66.589264   -2.108079  129.877838
  2.737000000   -2.034453  133.798950  -13.323600   60.181282  -13.280750   59.564346   -2.205138  125.933319
  2.757500000   -2.147345  129.403641  -13.249393   51.502052  -13.464786   51.014072   -2.378111  121.316055
  2.778000000   -2.265344  124.847061  -13.781346   48.727489  -13.983468   50.334171   -2.630976  115.714249
  2.798500000   -2.326628  120.662392  -13.163155   49.838924  -13.145479   51.679657   -2.720131  110.867279
  2.819000000   -2.452513  116.341370  -12.123319   43.411930  -12.078974   42.968941   -2.788796  106.848251
  2.839500000   -2.618343  112.211761  -12.227596   34.428940  -12.438453   34.126698   -2.939816  102.887474
  2.860000000   -2.732926  108.083000  -12.604592   32.376343  -12.838993   34.649521   -3.211369   98.092430
  2.880500000   -2.930094  103.844376  -11.955497   32.564377  -11.816369   34.491405   -3.455597   92.720879
  2.901000000   -3.050769   99.542030  -11.053995   24.901211  -10.960759   24.380259   -3.634098   88.293526
  2.921500000   -3.254177   95.642448  -11.308585   15.997924  -11.490227   16.255730   -3.779005   85.126694
  2.942000000   -3.468533   91.695145  -11.573450   14.191792  -11.743378   16.768055   -4.018191   81.589523
  2.962500000   -3.654514   87.850914  -10.862785   12.117860  -10.555293   14.316078   -4.356965   76.928192
  2.983000000   -3.812725   83.816376  -10.369973    3.974950  -10.046659    3.177607   -4.641150   72.124199
  3.003500000   -3.993005   79.865906  -10.638822   -3.581465  -10.842114   -3.962763   -4.899261   68.396156
  3.024000000   -4.254775   76.546394  -10.758696   -5.808610  -10.976457   -2.623801   -5.026647   65.912285
  3.044500000   -4.441949   72.983871  -10.162208  -10.309607   -9.751983   -7.327706   -5.384065   63.594021
  3.065000000   -4.608479   69.333138  -10.050946  -19.305872   -9.501263  -19.975374   -5.709655   58.750084
  3.085500000   -4.819328   65.877853  -10.407471  -24.753656  -10.525119  -26.166594   -5.888812   54.971714
  3.106000000   -4.992352   63.073383  -10.392923  -26.157265  -10.494679  -24.516514   -5.974827   52.155949
  3.126500000   -5.172880   59.765179   -9.780783  -32.870522   -9.321938  -29.970095   -6.081759   50.942719
  3.147000000   -5.301294   56.425114   -9.891610  -42.540035   -9.366743  -43.204018   -6.290768   48.470871
  3.167500000   -5.423110   53.006569  -10.593918  -46.706959  -10.521205  -49.435535   -6.594181   43.691273
  3.188000000   -5.584611   49.843468  -10.463213  -47.790562  -10.674856  -46.849564   -6.597088   39.802998
  3.208500000   -5.731289   46.136497   -9.783114  -54.837585   -9.516681  -52.117924   -6.463404   37.110035
  3.229000000   -5.757740   43.451996  -10.193217  -65.703346   -9.410128  -65.868492   -6.397979   35.680931
  3.249500000   -5.875586   39.456863  -11.038772  -70.475418  -10.867099  -72.638779   -6.665837   32.749546
  3.270000000   -5.977997   36.183212  -10.991079  -68.745834  -11.080579  -69.547859   -6.796329   27.313690
  3.290500000   -6.110217   32.401867  -10.092582  -75.991455  -10.012109  -74.195915   -6.780844   21.936977
  3.311000000   -6.205972   29.082176  -10.451543  -88.397720   -9.947281  -87.320023   -6.508217   19.511343
  3.331500000   -6.324681   24.854155  -11.646438  -92.790878  -11.320901  -94.180740   -6.483027   16.903770
  3.352000000   -6.384543   21.341990  -11.694173  -90.847389  -11.720809  -92.304459   -6.681762   13.168880
  3.372500000   -6.613444   17.233248  -10.869192  -97.396637  -10.931363  -96.462830   -6.848169    6.489294
  3.393000000   -6.734428   14.170000  -11.226576 -109.944519  -10.869288 -108.821396   -6.597857    1.453558
  3.413500000   -6.796249    9.934456  -12.640795 -113.850754  -12.151610 -115.595367   -6.444670   -1.871195
  3.434000000   -6.871149    6.269361  -12.759662 -112.396843  -12.650672 -114.783554   -6.529960   -4.506948
  3.454500000   -7.064912    2.514294  -12.087378 -117.566238  -12.074071 -118.833473   -6.760708   -9.689014
  3.475000000   -7.161148   -1.152861  -12.493290 -129.264633  -12.285982 -128.630539   -6.834746  -17.314648
  3.495500000   -7.162817   -4.932532  -13.746689 -133.884857  -13.417913 -135.114700   -6.489487  -22.876965
  3.516000000   -7.285795   -9.368718  -14.067373 -132.305832  -13.778058 -134.874313   -6.227642  -25.468245
  3.536500000   -7.298738  -13.254473  -13.482896 -137.873810  -13.589255 -139.047455   -6.402729  -29.191778
  3.557000000   -7.392039  -17.570004  -14.071684 -148.872238  -13.932238 -146.899002   -6.717692  -35.935307
  3.577500000   -7.474352  -22.012796  -15.130314 -151.906311  -14.854057 -152.157501   -6.698976  -44.385925
  3.598000000   -7.536703  -26.099464  -15.443801 -151.459625  -15.335426 -154.208466   -6.358257  -50.305626
  3.618500000   -7.600983  -30.833960  -15.095599 -157.123093  -15.126645 -157.516663   -6.191379  -53.132019
  3.639000000   -7.528979  -35.823196  -15.458498 -166.236679  -15.492986 -164.994675   -6.442822  -57.873512
  3.659500000   -7.587227  -40.766483  -16.610629 -168.929626  -16.283236 -170.208679   -6.700039  -66.067055
  3.680000000   -7.647845  -45.839184  -16.658593 -169.969849  -17.001611 -171.477249   -6.642977  -74.204155
  3.700500000   -7.695751  -51.045811  -16.853787 -176.094116  -16.970257 -175.508499   -6.247792  -79.277748
  3.721000000   -7.773385  -56.511650  -17.298052  174.207535  -17.486270  176.717590   -6.112997  -82.712349
  3.741500000   -7.821338  -61.902584  -18.343837  170.971130  -18.234729  170.635696   -6.553048  -87.955490
  3.762000000   -7.927140  -67.934998  -18.933251  170.787506  -18.946273  170.135773   -6.931028  -97.295189
  3.782500000   -7.997720  -73.640289  -19.021837  164.773178  -19.289276  165.481506   -6.615201 -105.329529
  3.803000000   -8.085245  -79.362198  -19.829422  157.686676  -19.863361  158.960251   -6.172501 -109.061676
