! Anritsu VNA Master:                         Model: MS2036C/2
! SN:                                  2120025
! /bd0/h100_2.s2p
! Existing Calibration Information:
! TYPE:                         Current Settings,       Active Cal Settings
! TIME:             	   03/24/2026 03:09:06 AM,    03/18/2026 10:00:30 PM
! INTERNAL TEMP:    	                   49.5 C,                    42.3 C
! # POINTS:         	                     2000,                      2000
! START FREQ:       	              500.000 MHz,               500.000 MHz
! STOP FREQ:        	                2.000 GHz,                 2.000 GHz
! SOURCE POWER:     	                     High,                      High
! IFBW:             	                   10 kHz,                    10 kHz
! AVG FACTOR:       	                       1 ,                        1 
! REF PLANE 1:      	                     0 mm,                      0 mm
! REF PLANE 2:      	                     0 mm,                      0 mm
! CAL TYPE:         	              Full 2 Port,               Full 2 Port
! CAL METHOD:       	                     SOLT,                      SOLT
! CAL LINE TYPE:    	                     Coax,                      Coax
! DUT PORT 1:       	                N-Conn(M),                 N-Conn(M)
! DUT PORT 2:       	                N-Conn(M),                 N-Conn(M)
! CAL STATUS:       	?T: Accuracy moderate (|Temp diff| > 5.0 C),                        --
# GHZ S MA R 50.0
! FREQ.GHZ       S11M         S11A         S21M         S21A         S12M         S12A         S22M         S22A
  0.500000000  9.365255E-01 -109.646248  4.418695E-02   22.179373  4.301466E-02   19.372326  9.730222E-01 -113.313492
  0.500750375  9.350991E-01 -109.832855  4.361564E-02   19.244202  4.192975E-02   20.447769  9.724272E-01 -113.503120
  0.501500750  9.353590E-01 -109.991745  4.337852E-02   19.368557  4.265026E-02   18.926468  9.724741E-01 -113.610153
  0.502251126  9.361084E-01 -110.228012  4.375076E-02   18.222624  4.267570E-02   18.770058  9.722336E-01 -113.841660
  0.503001501  9.356976E-01 -110.325996  4.268264E-02   20.228983  4.326268E-02   19.026686  9.738113E-01 -113.944382
  0.503751876  9.345520E-01 -110.530243  4.345779E-02   20.752251  4.356927E-02   18.048201  9.728439E-01 -114.169456
  0.504502251  9.346737E-01 -110.664047  4.416744E-02   18.710333  4.251550E-02   18.071133  9.728494E-01 -114.360336
  0.505252626  9.349350E-01 -110.794701  4.305310E-02   20.049677  4.343930E-02   18.201788  9.730560E-01 -114.452271
  0.506003001  9.358104E-01 -111.019188  4.402529E-02   18.341938  4.369593E-02   16.923708  9.734045E-01 -114.669121
  0.506753377  9.350981E-01 -111.157127  4.429576E-02   18.652761  4.347523E-02   18.078745  9.720647E-01 -114.821136
  0.507503752  9.348815E-01 -111.319878  4.375145E-02   17.873718  4.367321E-02   16.836803  9.729140E-01 -114.979721
  0.508254127  9.354839E-01 -111.529823  4.428640E-02   17.397236  4.330409E-02   17.127621  9.732274E-01 -115.177948
  0.509004502  9.348521E-01 -111.713348  4.393374E-02   16.759890  4.305221E-02   16.012741  9.720771E-01 -115.360199
  0.509754877  9.351070E-01 -111.820213  4.387316E-02   17.693020  4.371187E-02   16.355907  9.721829E-01 -115.536667
  0.510505253  9.355843E-01 -112.016777  4.449666E-02   17.383654  4.350022E-02   16.485947  9.713781E-01 -115.686058
  0.511255628  9.352976E-01 -112.217758  4.400479E-02   16.983454  4.415086E-02   14.735782  9.718072E-01 -115.831718
  0.512006003  9.352815E-01 -112.265022  4.300708E-02   16.092800  4.393084E-02   15.961770  9.718853E-01 -116.016640
  0.512756378  9.349065E-01 -112.463768  4.346417E-02   15.184108  4.355854E-02   16.726772  9.718418E-01 -116.179718
  0.513506753  9.348415E-01 -112.637169  4.443553E-02   16.896084  4.342378E-02   15.387890  9.718564E-01 -116.291344
  0.514257129  9.353350E-01 -112.779739  4.376394E-02   14.937743  4.245059E-02   15.058943  9.719675E-01 -116.537766
  0.515007504  9.352927E-01 -112.980774  4.254112E-02   16.578356  4.304400E-02   13.394614  9.713744E-01 -116.722984
  0.515757879  9.348730E-01 -113.053604  4.370690E-02   16.158865  4.378060E-02   15.822456  9.713833E-01 -116.908371
  0.516508254  9.350744E-01 -113.290497  4.376644E-02   15.436062  4.331198E-02   15.129094  9.705947E-01 -117.053299
  0.517258629  9.354718E-01 -113.379868  4.328254E-02   14.384244  4.344196E-02   14.943880  9.721963E-01 -117.285919
  0.518009005  9.364065E-01 -113.607185  4.457697E-02   15.560596  4.330664E-02   13.572212  9.713490E-01 -117.331680
  0.518759380  9.357933E-01 -113.723137  4.427424E-02   13.921179  4.343361E-02   14.661103  9.717478E-01 -117.548454
  0.519509755  9.344355E-01 -113.843231  4.360015E-02   14.302313  4.323793E-02   14.233514  9.708160E-01 -117.755470
  0.520260130  9.349540E-01 -114.171028  4.398488E-02   15.901809  4.253623E-02   14.431251  9.710106E-01 -117.864899
  0.521010505  9.352801E-01 -114.242531  4.334457E-02   13.413979  4.380445E-02   14.882051  9.705880E-01 -118.070992
  0.521760880  9.351313E-01 -114.519081  4.395325E-02   14.204093  4.371601E-02   14.200459  9.704089E-01 -118.297760
  0.522511256  9.354384E-01 -114.577232  4.447858E-02   15.013997  4.319909E-02   13.205380  9.704895E-01 -118.442879
  0.523261631  9.348688E-01 -114.727394  4.289367E-02   11.953239  4.387195E-02   12.957621  9.708661E-01 -118.547058
  0.524012006  9.340754E-01 -114.912155  4.348876E-02   14.132040  4.252679E-02   13.872207  9.707573E-01 -118.748032
  0.524762381  9.335617E-01 -115.092529  4.310409E-02   12.378740  4.370509E-02   12.258460  9.697750E-01 -118.975533
  0.525512756  9.350128E-01 -115.334503  4.459151E-02   13.626783  4.272719E-02   13.381947  9.693613E-01 -119.161804
  0.526263132  9.350045E-01 -115.383354  4.370071E-02   12.982291  4.356172E-02   12.696768  9.704614E-01 -119.297775
  0.527013507  9.343258E-01 -115.545090  4.335289E-02   13.665697  4.322290E-02   12.989419  9.706845E-01 -119.539146
  0.527763882  9.343222E-01 -115.722382  4.343878E-02   14.330717  4.303654E-02   12.933639  9.703596E-01 -119.732147
  0.528514257  9.336519E-01 -115.901520  4.337929E-02   12.999908  4.362726E-02   12.806498  9.690771E-01 -119.863663
  0.529264632  9.327704E-01 -116.053955  4.403207E-02   12.061544  4.336001E-02   13.811005  9.692451E-01 -120.033073
  0.530015008  9.325654E-01 -116.221024  4.343792E-02   13.570576  4.335186E-02   12.868021  9.690405E-01 -120.213432
  0.530765383  9.333870E-01 -116.371933  4.334632E-02   13.007393  4.210156E-02   11.741556  9.685619E-01 -120.401169
  0.531515758  9.344332E-01 -116.588280  4.360324E-02   12.880835  4.381113E-02   13.345239  9.688261E-01 -120.564590
  0.532266133  9.336497E-01 -116.840454  4.399270E-02   12.100790  4.373141E-02   13.379443  9.688970E-01 -120.757195
  0.533016508  9.328429E-01 -116.996635  4.372736E-02   11.187705  4.391203E-02   11.816293  9.682167E-01 -120.997894
  0.533766883  9.325232E-01 -117.076942  4.335294E-02   13.025259  4.297194E-02   12.140918  9.680653E-01 -121.209770
  0.534517259  9.339472E-01 -117.362747  4.362468E-02   12.675350  4.285990E-02   13.008341  9.686812E-01 -121.339516
  0.535267634  9.329154E-01 -117.542145  4.260008E-02   11.089869  4.272788E-02   13.403754  9.678023E-01 -121.538521
  0.536018009  9.317073E-01 -117.737122  4.374461E-02   12.928988  4.228396E-02   12.823695  9.676416E-01 -121.699013
  0.536768384  9.318163E-01 -117.896622  4.226989E-02   11.258215  4.330530E-02   12.307131  9.676140E-01 -121.949928
  0.537518759  9.318510E-01 -118.017227  4.305547E-02   11.980197  4.398588E-02   11.474155  9.677454E-01 -122.040154
  0.538269135  9.317241E-01 -118.242989  4.336581E-02   12.084015  4.334504E-02   12.779616  9.677973E-01 -122.354042
  0.539019510  9.310910E-01 -118.374092  4.340251E-02   12.262963  4.268710E-02   12.186939  9.665280E-01 -122.462189
  0.539769885  9.311561E-01 -118.588585  4.348587E-02   12.752458  4.414623E-02   11.487482  9.682593E-01 -122.750313
  0.540520260  9.312688E-01 -118.766159  4.272376E-02   12.752359  4.388884E-02   11.536323  9.676814E-01 -122.895142
  0.541270635  9.319362E-01 -118.921883  4.385489E-02   12.737729  4.382861E-02   11.652056  9.661220E-01 -123.033539
  0.542021011  9.304635E-01 -119.157074  4.332961E-02   12.748816  4.372750E-02   11.427869  9.676915E-01 -123.234016
  0.542771386  9.309586E-01 -119.292244  4.323366E-02   12.742924  4.359482E-02   11.733294  9.668208E-01 -123.490883
  0.543521761  9.320326E-01 -119.535553  4.412851E-02   11.866241  4.402386E-02   11.499794  9.662921E-01 -123.588120
  0.544272136  9.312873E-01 -119.671867  4.372589E-02   11.685702  4.410028E-02   12.193312  9.674372E-01 -123.799286
  0.545022511  9.306621E-01 -119.865517  4.361042E-02   12.111485  4.386695E-02   12.955503  9.668102E-01 -123.910667
  0.545772886  9.297442E-01 -120.076088  4.422221E-02   12.606510  4.404888E-02   11.441689  9.661574E-01 -124.171394
  0.546523262  9.305927E-01 -120.262093  4.433985E-02   12.506076  4.380778E-02   11.366221  9.669621E-01 -124.359962
  0.547273637  9.292716E-01 -120.434761  4.347432E-02   12.548067  4.329492E-02   11.640948  9.666247E-01 -124.541916
  0.548024012  9.291261E-01 -120.629051  4.353471E-02   12.056672  4.437212E-02   10.311283  9.663609E-01 -124.722481
  0.548774387  9.299111E-01 -120.782112  4.443793E-02   13.447459  4.446741E-02   12.174684  9.655503E-01 -124.954811
  0.549524762  9.289373E-01 -121.073425  4.417543E-02   11.070474  4.436106E-02   11.061546  9.656174E-01 -125.147804
  0.550275138  9.290724E-01 -121.175873  4.403187E-02   11.753195  4.521982E-02   13.211992  9.654354E-01 -125.375938
  0.551025513  9.277936E-01 -121.398087  4.384053E-02   13.070678  4.432065E-02   11.681407  9.646006E-01 -125.535515
  0.551775888  9.279287E-01 -121.567558  4.481607E-02   12.179051  4.423890E-02   11.242433  9.653749E-01 -125.744736
  0.552526263  9.278313E-01 -121.742538  4.466367E-02   11.501475  4.450906E-02   11.166763  9.648337E-01 -125.869156
  0.553276638  9.286651E-01 -122.012192  4.532600E-02   13.298395  4.506868E-02   12.401357  9.654248E-01 -126.064186
  0.554027014  9.285761E-01 -122.197067  4.491854E-02   12.430840  4.540380E-02   11.170698  9.650891E-01 -126.225899
  0.554777389  9.277039E-01 -122.372238  4.502894E-02   12.971394  4.521821E-02   11.816962  9.652261E-01 -126.507942
  0.555527764  9.279184E-01 -122.566422  4.477865E-02   11.786568  4.451887E-02   11.363920  9.649752E-01 -126.677002
  0.556278139  9.261942E-01 -122.804558  4.551902E-02   12.140396  4.546268E-02   11.810058  9.651702E-01 -126.753105
  0.557028514  9.262744E-01 -122.988991  4.498522E-02   11.405887  4.566061E-02   11.976520  9.641400E-01 -127.058060
  0.557778889  9.266170E-01 -123.101746  4.483593E-02   11.807075  4.577959E-02   12.382859  9.647545E-01 -127.235825
  0.558529265  9.256402E-01 -123.323441  4.603647E-02   12.221052  4.603450E-02   11.753476  9.642159E-01 -127.422028
  0.559279640  9.258575E-01 -123.488945  4.648880E-02   11.442484  4.612068E-02   12.238089  9.654389E-01 -127.645714
  0.560030015  9.261441E-01 -123.698372  4.609165E-02   10.874327  4.659578E-02   11.743273  9.646925E-01 -127.875961
  0.560780390  9.249641E-01 -123.886406  4.664698E-02   12.815911  4.516777E-02   10.013602  9.653111E-01 -127.961380
  0.561530765  9.256526E-01 -124.073410  4.748883E-02   11.462326  4.607164E-02   11.015501  9.640254E-01 -128.134125
  0.562281141  9.253084E-01 -124.377365  4.655821E-02   11.869659  4.674852E-02   11.817971  9.642268E-01 -128.353882
  0.563031516  9.252766E-01 -124.524986  4.788568E-02   11.133295  4.733736E-02   11.737682  9.640108E-01 -128.594391
  0.563781891  9.241920E-01 -124.685936  4.774934E-02   10.968815  4.609529E-02    9.129972  9.642453E-01 -128.684067
  0.564532266  9.233664E-01 -124.902016  4.780192E-02   10.460254  4.753378E-02    9.402272  9.631754E-01 -128.820511
  0.565282641  9.249394E-01 -125.131645  4.809833E-02   11.205540  4.791727E-02   10.713634  9.647451E-01 -129.069290
  0.566033017  9.237352E-01 -125.299889  4.790029E-02   10.573272  4.680602E-02   10.699296  9.644165E-01 -129.216751
  0.566783392  9.246837E-01 -125.490219  4.771789E-02   11.362139  4.805727E-02   10.546659  9.647021E-01 -129.381256
  0.567533767  9.229263E-01 -125.679169  4.911411E-02   10.850719  4.673799E-02    9.930116  9.647630E-01 -129.609940
  0.568284142  9.226068E-01 -125.911957  4.847730E-02   10.479533  4.795371E-02    8.405587  9.636645E-01 -129.742523
  0.569034517  9.227947E-01 -126.054955  4.840469E-02   11.429438  4.784561E-02   10.254190  9.639598E-01 -129.938004
  0.569784892  9.224894E-01 -126.284286  4.809550E-02    9.337646  4.689770E-02    9.042174  9.637110E-01 -130.183304
  0.570535268  9.223260E-01 -126.456856  4.795175E-02    9.466818  4.837263E-02    9.702579  9.646731E-01 -130.339432
  0.571285643  9.217299E-01 -126.677376  4.913095E-02   10.100539  4.864394E-02    8.560597  9.629285E-01 -130.570465
  0.572036018  9.218749E-01 -126.800331  5.016886E-02   10.261531  4.815922E-02    8.696001  9.637485E-01 -130.742996
  0.572786393  9.219301E-01 -127.027679  4.920540E-02    8.239338  4.959005E-02    8.012844  9.651749E-01 -130.857254
  0.573536768  9.222470E-01 -127.290161  4.984596E-02    9.359342  4.912257E-02    7.524269  9.635907E-01 -131.058533
  0.574287144  9.219730E-01 -127.464706  4.894800E-02    9.374398  4.843557E-02    7.755752  9.636815E-01 -131.249039
  0.575037519  9.218526E-01 -127.666794  5.152560E-02    7.424613  4.896749E-02    7.732781  9.644133E-01 -131.452530
  0.575787894  9.216939E-01 -127.877632  4.918860E-02    9.046854  4.884243E-02    7.697655  9.639564E-01 -131.489380
  0.576538269  9.215271E-01 -128.024567  5.046006E-02    7.742831  4.822602E-02    7.103080  9.640703E-01 -131.759262
  0.577288644  9.208997E-01 -128.129562  5.020114E-02    7.362037  4.984384E-02    6.249857  9.639610E-01 -131.945480
  0.578039020  9.212347E-01 -128.421677  5.032137E-02    8.215135  4.851907E-02    7.211127  9.637405E-01 -132.201981
  0.578789395  9.215436E-01 -128.534698  5.120534E-02    7.932282  4.946465E-02    6.682463  9.631193E-01 -132.380463
  0.579539770  9.212775E-01 -128.807098  5.008807E-02    8.194224  5.003738E-02    5.993092  9.649900E-01 -132.427902
  0.580290145  9.213724E-01 -128.996521  5.098018E-02    7.165743  4.894948E-02    7.331430  9.647318E-01 -132.652649
  0.581040520  9.212433E-01 -129.189499  5.099818E-02    6.099226  4.954533E-02    7.633197  9.633043E-01 -132.823364
  0.581790895  9.202610E-01 -129.329956  5.062546E-02    7.493528  4.912176E-02    4.907294  9.645711E-01 -132.987411
  0.582541271  9.210514E-01 -129.538406  4.998107E-02    4.790017  5.015188E-02    6.072181  9.645088E-01 -133.150665
  0.583291646  9.216159E-01 -129.699783  5.142457E-02    6.053731  4.943185E-02    6.119177  9.633600E-01 -133.370651
  0.584042021  9.213988E-01 -129.903976  5.202417E-02    5.913832  4.995659E-02    4.962879  9.647078E-01 -133.563400
  0.584792396  9.205707E-01 -130.070923  5.075445E-02    5.917434  4.996556E-02    5.401297  9.639252E-01 -133.646912
  0.585542771  9.212676E-01 -130.281784  5.142120E-02    5.721847  4.950269E-02    4.311574  9.639019E-01 -133.815887
  0.586293147  9.209084E-01 -130.450180  5.228635E-02    4.643889  4.979809E-02    5.783555  9.641624E-01 -134.000214
  0.587043522  9.204463E-01 -130.606735  5.104203E-02    3.226946  4.930856E-02    5.144905  9.648451E-01 -134.173218
  0.587793897  9.204001E-01 -130.745804  5.156656E-02    4.741310  4.993932E-02    3.764007  9.651421E-01 -134.431946
  0.588544272  9.205191E-01 -130.913635  5.107528E-02    4.468887  5.027208E-02    3.946061  9.652592E-01 -134.536713
  0.589294647  9.213452E-01 -131.171371  5.152848E-02    4.511870  5.053276E-02    4.089447  9.658022E-01 -134.764374
  0.590045023  9.207175E-01 -131.295105  5.088254E-02    3.655725  5.077340E-02    3.708171  9.656071E-01 -134.942856
  0.590795398  9.205934E-01 -131.500443  5.051337E-02    4.629122  4.963660E-02    3.602755  9.651819E-01 -135.080841
  0.591545773  9.202876E-01 -131.564194  5.111539E-02    3.934776  5.031732E-02    3.267873  9.637812E-01 -135.223709
  0.592296148  9.198026E-01 -131.803909  5.166670E-02    3.240182  4.998398E-02    3.010526  9.645954E-01 -135.432068
  0.593046523  9.199015E-01 -132.014893  5.055301E-02    4.092534  5.010410E-02    3.357555  9.643527E-01 -135.544769
  0.593796898  9.207813E-01 -132.078598  5.199733E-02    4.204319  4.943712E-02    3.384308  9.649467E-01 -135.732803
  0.594547274  9.194542E-01 -132.438126  5.196133E-02    2.726721  4.929627E-02    1.252055  9.649335E-01 -135.877563
  0.595297649  9.193390E-01 -132.586151  5.251090E-02    1.151331  5.061981E-02    2.849970  9.641550E-01 -136.103775
  0.596048024  9.191837E-01 -132.731110  5.119464E-02    2.988826  5.002612E-02    2.398182  9.663928E-01 -136.239517
  0.596798399  9.194689E-01 -132.862946  5.146643E-02    1.590392  4.954647E-02    2.920887  9.640294E-01 -136.362442
  0.597548774  9.202020E-01 -133.036514  5.166528E-02    2.683993  5.069777E-02    2.252347  9.643738E-01 -136.651672
  0.598299150  9.197552E-01 -133.247635  5.139227E-02    2.944959  4.971330E-02    3.122419  9.651329E-01 -136.740921
  0.599049525  9.192327E-01 -133.307220  5.085906E-02    0.418644  5.087832E-02    1.723571  9.649974E-01 -136.958710
  0.599799900  9.198877E-01 -133.565567  5.236114E-02    1.138514  4.920369E-02    1.064353  9.646701E-01 -137.134369
  0.600550275  9.194974E-01 -133.753571  5.115669E-02    0.960563  4.989041E-02    0.650385  9.653050E-01 -137.295471
  0.601300650  9.191308E-01 -133.957382  5.126376E-02    1.028673  4.977431E-02    1.102383  9.629724E-01 -137.353500
  0.602051026  9.192234E-01 -134.014725  5.170834E-02    2.001292  4.938864E-02    0.521263  9.634331E-01 -137.599625
  0.602801401  9.193586E-01 -134.256897  5.141745E-02    2.320058  4.879058E-02    2.061483  9.647908E-01 -137.787323
  0.603551776  9.185069E-01 -134.513214  5.148846E-02    1.878223  5.058385E-02    1.136649  9.637040E-01 -137.957581
  0.604302151  9.197430E-01 -134.616776  4.980686E-02    1.766162  5.063115E-02    1.300729  9.653971E-01 -138.184113
  0.605052526  9.199172E-01 -134.729889  5.127676E-02    0.729991  5.100391E-02    0.929482  9.634879E-01 -138.262665
  0.605802901  9.195725E-01 -134.904999  5.041521E-02    2.041945  5.006124E-02    1.153416  9.649320E-01 -138.390045
  0.606553277  9.182332E-01 -135.155533  5.103010E-02    0.425238  5.074858E-02    1.130779  9.649464E-01 -138.626312
  0.607303652  9.190186E-01 -135.297256  5.274008E-02    0.905305  4.908162E-02    0.802930  9.638743E-01 -138.832993
  0.608054027  9.196587E-01 -135.430359  4.969715E-02    0.569637  4.935023E-02    1.149321  9.643146E-01 -138.968369
  0.608804402  9.200930E-01 -135.681198  5.112760E-02   -0.707634  4.997613E-02    0.651095  9.639828E-01 -139.107376
  0.609554777  9.195567E-01 -135.824661  5.064112E-02    0.052326  4.989023E-02    1.137186  9.636084E-01 -139.240173
  0.610305153  9.198295E-01 -135.938171  5.093887E-02    0.405012  5.024397E-02    1.281679  9.640109E-01 -139.453476
  0.611055528  9.191194E-01 -136.144119  5.087460E-02    0.589976  4.985134E-02   -0.267682  9.623393E-01 -139.620743
  0.611805903  9.191933E-01 -136.274429  5.128705E-02    0.929574  5.063720E-02    1.467088  9.630356E-01 -139.793762
  0.612556278  9.172441E-01 -136.480560  5.007759E-02    1.210968  5.031793E-02    0.474859  9.618590E-01 -139.990204
  0.613306653  9.185132E-01 -136.722198  5.007290E-02   -0.016711  4.987761E-02    0.165808  9.626506E-01 -140.139999
  0.614057029  9.186289E-01 -136.908203  5.127600E-02    0.898407  5.059020E-02   -0.664410  9.621997E-01 -140.377441
  0.614807404  9.177498E-01 -137.044434  5.142592E-02   -1.169685  5.108969E-02    0.191956  9.623134E-01 -140.508835
  0.615557779  9.185380E-01 -137.286118  5.183351E-02   -0.199539  5.078265E-02   -0.290485  9.614410E-01 -140.679230
  0.616308154  9.159065E-01 -137.489349  5.146414E-02   -1.143016  5.054700E-02    0.425939  9.616056E-01 -140.931885
