! Anritsu VNA Master:                         Model: MS2036C/2
! SN:                                  2120025
! /bd0/25.s2p
! Existing Calibration Information:
! TYPE:                         Current Settings,       Active Cal Settings
! TIME:             	   03/24/2026 03:11:36 AM,    03/18/2026 10:00:30 PM
! INTERNAL TEMP:    	                   50.3 C,                    42.3 C
! # POINTS:         	                     2000,                      2000
! START FREQ:       	              500.000 MHz,               500.000 MHz
! STOP FREQ:        	                2.000 GHz,                 2.000 GHz
! SOURCE POWER:     	                     High,                      High
! IFBW:             	                   10 kHz,                    10 kHz
! AVG FACTOR:       	                       1 ,                        1 
! REF PLANE 1:      	                     0 mm,                      0 mm
! REF PLANE 2:      	                     0 mm,                      0 mm
! CAL TYPE:         	              Full 2 Port,               Full 2 Port
! CAL METHOD:       	                     SOLT,                      SOLT
! CAL LINE TYPE:    	                     Coax,                      Coax
! DUT PORT 1:       	                N-Conn(M),                 N-Conn(M)
! DUT PORT 2:       	                N-Conn(M),                 N-Conn(M)
! CAL STATUS:       	?T: Accuracy moderate (|Temp diff| > 5.0 C),                        --
# GHZ S MA R 50.0
! FREQ.GHZ       S11M         S11A         S21M         S21A         S12M         S12A         S22M         S22A
  0.500000000  9.603859E-01 -114.335907  4.530710E-02   17.444176  4.469349E-02   15.570898  9.721649E-01 -113.769699
  0.500750375  9.602947E-01 -114.503296  4.559064E-02   17.104752  4.491347E-02   15.162690  9.716153E-01 -113.900017
  0.501500750  9.605637E-01 -114.597885  4.558247E-02   17.057678  4.465916E-02   15.435651  9.716593E-01 -114.083069
  0.502251126  9.603167E-01 -114.745003  4.531808E-02   15.294206  4.553260E-02   14.958702  9.711310E-01 -114.261398
  0.503001501  9.595276E-01 -114.949417  4.591551E-02   16.189583  4.473661E-02   15.268553  9.708833E-01 -114.479523
  0.503751876  9.579534E-01 -115.106720  4.559233E-02   15.081898  4.507243E-02   15.156004  9.718329E-01 -114.605751
  0.504502251  9.601817E-01 -115.259262  4.532823E-02   15.818284  4.549945E-02   14.535575  9.712388E-01 -114.772385
  0.505252626  9.602332E-01 -115.405769  4.561717E-02   16.508152  4.421758E-02   14.638303  9.719353E-01 -114.913879
  0.506003001  9.607080E-01 -115.597603  4.642402E-02   14.466928  4.571214E-02   13.892849  9.719181E-01 -115.113983
  0.506753377  9.594380E-01 -115.783401  4.459584E-02   15.238283  4.546703E-02   13.548904  9.710755E-01 -115.335518
  0.507503752  9.597363E-01 -115.908791  4.521710E-02   14.779403  4.515856E-02   12.703072  9.709564E-01 -115.467354
  0.508254127  9.611409E-01 -116.028496  4.546832E-02   14.720525  4.437457E-02   13.171925  9.718467E-01 -115.617317
  0.509004502  9.595531E-01 -116.306236  4.572667E-02   13.742797  4.519162E-02   13.338671  9.718581E-01 -115.753784
  0.509754877  9.602538E-01 -116.472595  4.489087E-02   13.905858  4.480417E-02   13.462880  9.707460E-01 -115.980698
  0.510505253  9.597360E-01 -116.559586  4.517948E-02   13.740566  4.419653E-02   12.849759  9.705549E-01 -116.201530
  0.511255628  9.611742E-01 -116.729912  4.595222E-02   13.343442  4.457410E-02   12.396916  9.707414E-01 -116.354103
  0.512006003  9.607405E-01 -116.863335  4.624330E-02   13.426510  4.473386E-02   10.695589  9.702442E-01 -116.513878
  0.512756378  9.605662E-01 -117.116013  4.590236E-02   12.309918  4.453567E-02   11.641756  9.702324E-01 -116.606384
  0.513506753  9.602638E-01 -117.240486  4.565797E-02   12.120934  4.558034E-02   10.823376  9.711921E-01 -116.725754
  0.514257129  9.604730E-01 -117.423149  4.530434E-02   10.763375  4.488534E-02   10.699415  9.712420E-01 -117.057381
  0.515007504  9.598390E-01 -117.568909  4.623203E-02   12.472768  4.467439E-02   10.568862  9.716183E-01 -117.173698
  0.515757879  9.602739E-01 -117.728668  4.525288E-02   12.703745  4.440335E-02   10.658914  9.712846E-01 -117.364258
  0.516508254  9.603439E-01 -117.832336  4.472965E-02   12.233716  4.520488E-02   10.839693  9.710842E-01 -117.487106
  0.517258629  9.607255E-01 -118.032402  4.558076E-02   11.762576  4.560962E-02   10.606172  9.718021E-01 -117.693573
  0.518009005  9.590052E-01 -118.195137  4.442429E-02   12.728318  4.446558E-02   10.766763  9.700007E-01 -117.880203
  0.518759380  9.612839E-01 -118.258827  4.515599E-02   10.503826  4.532900E-02   10.409880  9.709952E-01 -118.103127
  0.519509755  9.597000E-01 -118.498222  4.526106E-02   10.982672  4.461392E-02   10.707664  9.689417E-01 -118.227226
  0.520260130  9.601555E-01 -118.667389  4.582359E-02   11.935119  4.471223E-02   10.135943  9.700857E-01 -118.280136
  0.521010505  9.599356E-01 -118.813995  4.506159E-02    9.657385  4.431144E-02   11.536116  9.692133E-01 -118.619362
  0.521760880  9.607234E-01 -118.945534  4.525577E-02   10.004601  4.430673E-02   10.480853  9.695932E-01 -118.797302
  0.522511256  9.601327E-01 -119.216743  4.510367E-02    9.598836  4.433542E-02    9.564688  9.700501E-01 -118.965256
  0.523261631  9.606148E-01 -119.335167  4.462847E-02    8.769896  4.378777E-02    9.791681  9.686608E-01 -119.185257
  0.524012006  9.604744E-01 -119.491074  4.391784E-02    9.906616  4.372806E-02    8.929305  9.701316E-01 -119.287918
  0.524762381  9.606516E-01 -119.707123  4.562601E-02    9.088489  4.374106E-02    9.300965  9.704301E-01 -119.517670
  0.525512756  9.604233E-01 -119.860695  4.555312E-02   10.494683  4.422951E-02   10.362527  9.700665E-01 -119.576187
  0.526263132  9.605424E-01 -120.011833  4.457518E-02   10.431100  4.397099E-02    8.570249  9.696563E-01 -119.819893
  0.527013507  9.589843E-01 -120.186577  4.522566E-02    9.815818  4.437082E-02    8.600306  9.698024E-01 -119.972626
  0.527763882  9.594412E-01 -120.316010  4.456319E-02    9.587094  4.419631E-02    8.482893  9.679437E-01 -120.214050
  0.528514257  9.590548E-01 -120.590584  4.463702E-02    9.343534  4.429526E-02    9.706836  9.685882E-01 -120.285782
  0.529264632  9.581495E-01 -120.662148  4.375489E-02    9.094922  4.461281E-02    9.616578  9.689400E-01 -120.527374
  0.530015008  9.597068E-01 -120.846581  4.466958E-02    9.406772  4.503651E-02    8.015685  9.696643E-01 -120.692833
  0.530765383  9.586166E-01 -121.056908  4.474959E-02    8.454446  4.456480E-02    8.714751  9.670982E-01 -120.814980
  0.531515758  9.589767E-01 -121.196938  4.405444E-02    8.509126  4.327595E-02    8.735969  9.677861E-01 -121.056473
  0.532266133  9.592027E-01 -121.487740  4.437948E-02    9.301121  4.433971E-02    9.590516  9.684659E-01 -121.278847
  0.533016508  9.597722E-01 -121.626625  4.413437E-02    9.731580  4.458683E-02    7.684699  9.673304E-01 -121.458000
  0.533766883  9.584572E-01 -121.737305  4.432859E-02    8.339192  4.455280E-02    9.338024  9.675350E-01 -121.714821
  0.534517259  9.590217E-01 -121.978302  4.433097E-02    8.672533  4.406979E-02    9.467662  9.687754E-01 -121.774757
  0.535267634  9.591619E-01 -122.125519  4.371851E-02    8.945917  4.431284E-02    9.162817  9.675761E-01 -122.039101
  0.536018009  9.579831E-01 -122.251221  4.395131E-02    8.834327  4.454986E-02    9.157107  9.659581E-01 -122.209793
  0.536768384  9.590530E-01 -122.475647  4.520016E-02    9.272836  4.446102E-02    8.716570  9.669928E-01 -122.447411
  0.537518759  9.573231E-01 -122.714249  4.484975E-02    8.084741  4.471262E-02    7.754813  9.670162E-01 -122.672195
  0.538269135  9.581196E-01 -122.823318  4.380945E-02    9.390218  4.475332E-02    9.089020  9.663218E-01 -122.855431
  0.539019510  9.583876E-01 -122.982162  4.488401E-02    8.385172  4.462996E-02    8.561807  9.673029E-01 -123.007988
  0.539769885  9.577678E-01 -123.196175  4.425958E-02    8.450144  4.544691E-02    8.554586  9.672065E-01 -123.233292
  0.540520260  9.568650E-01 -123.357643  4.534788E-02    8.485241  4.567413E-02    7.960578  9.670328E-01 -123.483780
  0.541270635  9.560276E-01 -123.528969  4.599237E-02    7.703465  4.453234E-02    8.409807  9.665468E-01 -123.558243
  0.542021011  9.565789E-01 -123.734383  4.503328E-02    8.194346  4.525128E-02    7.371330  9.669939E-01 -123.778152
  0.542771386  9.559513E-01 -123.963272  4.553557E-02    8.990761  4.452531E-02    8.956497  9.660264E-01 -123.945351
  0.543521761  9.560893E-01 -124.092049  4.483791E-02    8.265096  4.432981E-02    7.796848  9.661158E-01 -124.149277
  0.544272136  9.571183E-01 -124.299347  4.536348E-02    9.643133  4.503807E-02    8.372252  9.658472E-01 -124.330589
  0.545022511  9.555907E-01 -124.550400  4.498217E-02    8.729406  4.618583E-02    8.466474  9.659222E-01 -124.446007
  0.545772886  9.553010E-01 -124.702538  4.559764E-02    9.696625  4.532231E-02    8.943403  9.665168E-01 -124.745285
  0.546523262  9.544567E-01 -124.867622  4.519482E-02    8.843854  4.584566E-02    8.322981  9.646087E-01 -124.953911
  0.547273637  9.542591E-01 -124.999084  4.520009E-02    7.856751  4.585650E-02    8.655825  9.663664E-01 -125.150841
  0.548024012  9.538723E-01 -125.230087  4.484390E-02    7.209103  4.664824E-02    7.990834  9.655203E-01 -125.315041
  0.548774387  9.534325E-01 -125.436012  4.609150E-02    8.983664  4.562236E-02    8.017673  9.646313E-01 -125.510559
  0.549524762  9.541155E-01 -125.713112  4.594456E-02    9.184725  4.633312E-02    8.371785  9.647701E-01 -125.707008
  0.550275138  9.536743E-01 -125.799774  4.667560E-02    8.808489  4.643855E-02    7.001037  9.638304E-01 -125.847725
  0.551025513  9.534987E-01 -126.054718  4.561586E-02    8.844094  4.589445E-02    8.295195  9.640717E-01 -126.055099
  0.551775888  9.552094E-01 -126.185570  4.549895E-02    9.026401  4.633841E-02    8.011100  9.634163E-01 -126.238617
  0.552526263  9.533555E-01 -126.398567  4.635898E-02    8.450238  4.640333E-02    7.450076  9.637054E-01 -126.412277
  0.553276638  9.532000E-01 -126.580193  4.590530E-02    8.315332  4.708373E-02    8.502931  9.634075E-01 -126.644196
  0.554027014  9.522834E-01 -126.815681  4.657037E-02    8.740786  4.548498E-02    7.230283  9.631280E-01 -126.820633
  0.554777389  9.535295E-01 -126.991768  4.628260E-02    9.068486  4.633679E-02    7.868707  9.634426E-01 -126.971771
  0.555527764  9.533328E-01 -127.164009  4.687246E-02    8.803176  4.722020E-02    6.925268  9.617862E-01 -127.193642
  0.556278139  9.519509E-01 -127.349106  4.678611E-02    7.497625  4.703912E-02    7.944997  9.634973E-01 -127.288467
  0.557028514  9.525458E-01 -127.626335  4.669665E-02    8.315598  4.676358E-02    8.312428  9.646963E-01 -127.586456
  0.557778889  9.509486E-01 -127.749222  4.688764E-02    7.677700  4.765294E-02    7.110088  9.629632E-01 -127.824860
  0.558529265  9.513240E-01 -127.951218  4.765524E-02    7.252215  4.707358E-02    7.741946  9.629716E-01 -127.984329
  0.559279640  9.506351E-01 -128.115631  4.757785E-02    7.381096  4.809223E-02    7.368288  9.626608E-01 -128.106033
  0.560030015  9.510795E-01 -128.345825  4.790861E-02    7.777566  4.784280E-02    6.866920  9.637713E-01 -128.384415
  0.560780390  9.503944E-01 -128.525711  4.629348E-02    8.911209  4.737837E-02    5.701340  9.631037E-01 -128.554520
  0.561530765  9.519364E-01 -128.723969  4.782443E-02    7.346911  4.774268E-02    5.968277  9.618171E-01 -128.832932
  0.562281141  9.507216E-01 -128.880951  4.773770E-02    7.504623  4.888467E-02    5.738443  9.628341E-01 -128.840744
  0.563031516  9.501637E-01 -129.167847  4.873373E-02    8.048497  4.823393E-02    6.701329  9.627953E-01 -129.113754
  0.563781891  9.503738E-01 -129.243195  4.876282E-02    8.280187  4.941959E-02    7.438458  9.632828E-01 -129.233093
  0.564532266  9.490959E-01 -129.516953  4.813759E-02    7.646025  4.797738E-02    5.916680  9.625127E-01 -129.431122
  0.565282641  9.498248E-01 -129.681931  4.957270E-02    6.813451  4.857747E-02    5.892422  9.624906E-01 -129.638062
  0.566033017  9.486359E-01 -129.857178  4.920766E-02    8.074750  4.913833E-02    6.041618  9.618514E-01 -129.771286
  0.566783392  9.503738E-01 -130.048141  4.943082E-02    7.681044  4.947200E-02    5.807384  9.631821E-01 -130.063736
  0.567533767  9.496154E-01 -130.280182  5.047440E-02    6.516436  4.876674E-02    5.759004  9.610757E-01 -130.194717
  0.568284142  9.490283E-01 -130.487885  4.955588E-02    6.292718  5.043032E-02    5.163141  9.609249E-01 -130.369812
  0.569034517  9.495128E-01 -130.678360  5.057501E-02    7.258651  4.894159E-02    6.496824  9.617046E-01 -130.570297
  0.569784892  9.479740E-01 -130.922379  5.003940E-02    6.286546  4.970764E-02    5.264075  9.624228E-01 -130.674683
  0.570535268  9.493099E-01 -131.013718  5.005225E-02    6.220012  4.971952E-02    4.662303  9.616186E-01 -130.889511
  0.571285643  9.486989E-01 -131.168472  5.040092E-02    5.286925  4.881014E-02    4.936321  9.615724E-01 -131.060165
  0.572036018  9.481193E-01 -131.429123  5.076361E-02    5.481238  4.997680E-02    5.040919  9.617966E-01 -131.297592
  0.572786393  9.480552E-01 -131.599533  5.205492E-02    4.944510  4.969047E-02    4.543768  9.621847E-01 -131.379593
  0.573536768  9.478316E-01 -131.850006  5.070180E-02    4.733223  5.001896E-02    4.329926  9.621077E-01 -131.582443
  0.574287144  9.476107E-01 -132.022675  5.204490E-02    5.265243  5.062442E-02    4.132502  9.615476E-01 -131.807297
  0.575037519  9.479294E-01 -132.235031  5.220138E-02    4.743246  4.983470E-02    5.833838  9.609194E-01 -132.053818
  0.575787894  9.466144E-01 -132.389725  5.140061E-02    5.699523  5.070944E-02    3.519496  9.613081E-01 -132.205276
  0.576538269  9.476863E-01 -132.546295  5.237328E-02    4.478042  5.107069E-02    1.876453  9.617110E-01 -132.407654
  0.577288644  9.473109E-01 -132.716461  5.217526E-02    4.049492  5.035450E-02    3.087634  9.610958E-01 -132.506729
  0.578039020  9.463797E-01 -132.988205  5.206260E-02    3.919996  5.096848E-02    2.409993  9.612247E-01 -132.799942
  0.578789395  9.480010E-01 -133.136658  5.241317E-02    2.484702  5.061923E-02    2.244357  9.611749E-01 -132.972992
  0.579539770  9.472670E-01 -133.295410  5.201445E-02    2.909591  5.060108E-02    1.626365  9.615369E-01 -133.084915
  0.580290145  9.471843E-01 -133.493774  5.215345E-02    2.933632  5.066963E-02    1.912705  9.619474E-01 -133.236847
  0.581040520  9.471892E-01 -133.670273  5.156618E-02    2.670034  5.100222E-02    0.709829  9.620116E-01 -133.391785
  0.581790895  9.463573E-01 -133.806473  5.180358E-02    1.699095  5.086585E-02    1.110507  9.623021E-01 -133.618225
  0.582541271  9.466804E-01 -133.987000  5.307747E-02    2.267867  5.080700E-02    1.240222  9.606957E-01 -133.727661
  0.583291646  9.469075E-01 -134.219177  5.191364E-02    1.926485  5.070513E-02    0.605207  9.629394E-01 -133.989166
  0.584042021  9.470211E-01 -134.426849  5.237148E-02    1.309839  5.122394E-02    0.547289  9.623876E-01 -134.130936
  0.584792396  9.468371E-01 -134.604553  5.262319E-02    1.679062  5.148464E-02    1.279931  9.624414E-01 -134.289459
  0.585542771  9.464115E-01 -134.779373  5.089038E-02    2.084732  5.154882E-02    0.554981  9.616839E-01 -134.446716
  0.586293147  9.479580E-01 -134.929230  5.369393E-02    1.377905  5.168059E-02    0.315636  9.632083E-01 -134.612061
  0.587043522  9.463336E-01 -135.093933  5.208125E-02    0.075432  5.235519E-02   -0.512632  9.620217E-01 -134.729507
  0.587793897  9.465114E-01 -135.291077  5.273282E-02    1.171382  5.113592E-02   -0.046687  9.643403E-01 -134.977936
  0.588544272  9.468152E-01 -135.389130  5.203633E-02   -0.064029  5.060884E-02   -0.791949  9.628015E-01 -135.116989
  0.589294647  9.465497E-01 -135.658615  5.311517E-02    0.145610  5.201719E-02   -0.387190  9.620304E-01 -135.343475
  0.590045023  9.462069E-01 -135.800888  5.322880E-02    0.745335  5.143416E-02   -0.962822  9.614876E-01 -135.449219
  0.590795398  9.445015E-01 -135.932480  5.265364E-02    0.718350  5.146351E-02   -1.341861  9.614090E-01 -135.545547
  0.591545773  9.470785E-01 -136.098572  5.211938E-02   -1.098324  5.002053E-02   -0.867005  9.613922E-01 -135.818954
  0.592296148  9.462867E-01 -136.228088  5.276820E-02   -0.611289  5.071646E-02   -0.742597  9.625066E-01 -136.013260
  0.593046523  9.457597E-01 -136.426041  5.256163E-02   -2.286099  5.169534E-02   -0.978678  9.630507E-01 -136.141769
  0.593796898  9.460443E-01 -136.609268  5.204619E-02   -1.209235  5.067455E-02   -1.906455  9.615493E-01 -136.374084
  0.594547274  9.468808E-01 -136.793152  5.219156E-02   -0.555493  5.033773E-02   -2.008677  9.632033E-01 -136.467957
  0.595297649  9.456148E-01 -136.993347  5.315540E-02   -1.410047  5.182931E-02   -1.283736  9.617068E-01 -136.594818
  0.596048024  9.459442E-01 -137.194595  5.283508E-02   -2.400929  5.171861E-02   -1.605909  9.623426E-01 -136.854599
  0.596798399  9.442609E-01 -137.278244  5.215738E-02   -2.293613  5.075942E-02   -1.488215  9.623441E-01 -136.993973
  0.597548774  9.456809E-01 -137.433044  5.206843E-02   -3.230333  5.088129E-02   -2.516884  9.615021E-01 -137.150131
  0.598299150  9.466678E-01 -137.555496  5.196477E-02   -2.759800  5.013448E-02   -2.143717  9.624218E-01 -137.364670
  0.599049525  9.451832E-01 -137.773560  5.177947E-02   -2.564708  5.090668E-02   -3.380438  9.618403E-01 -137.534561
  0.599799900  9.455216E-01 -138.017075  5.210846E-02   -2.676824  5.045234E-02   -2.228134  9.613878E-01 -137.723526
  0.600550275  9.453680E-01 -138.121948  5.192593E-02   -2.874417  5.105077E-02   -2.908633  9.630626E-01 -137.882507
  0.601300650  9.449141E-01 -138.302567  5.235995E-02   -3.650615  5.055539E-02   -3.281290  9.622793E-01 -137.996277
  0.602051026  9.450653E-01 -138.317795  5.185313E-02   -2.603625  5.049854E-02   -3.191949  9.622658E-01 -138.273392
  0.602801401  9.470391E-01 -138.618149  5.078536E-02   -2.153294  5.062903E-02   -3.731427  9.611998E-01 -138.345596
  0.603551776  9.447182E-01 -138.879425  5.228741E-02   -4.069200  4.965507E-02   -3.378024  9.628483E-01 -138.548813
  0.604302151  9.454225E-01 -139.007629  5.106559E-02   -3.524618  5.079831E-02   -4.015625  9.617245E-01 -138.764572
  0.605052526  9.450812E-01 -139.212448  5.120177E-02   -4.102047  4.984798E-02   -4.035374  9.621523E-01 -138.898026
  0.605802901  9.464021E-01 -139.301224  5.175322E-02   -3.154459  5.027839E-02   -4.133617  9.610211E-01 -139.041656
  0.606553277  9.457710E-01 -139.334244  5.136280E-02   -3.238078  5.023768E-02   -4.161992  9.616077E-01 -139.210098
  0.607303652  9.462649E-01 -139.621307  5.225927E-02   -5.030249  5.113899E-02   -4.415593  9.615823E-01 -139.452881
  0.608054027  9.446620E-01 -139.864395  5.215149E-02   -3.869499  5.009353E-02   -3.760015  9.618986E-01 -139.561081
  0.608804402  9.446204E-01 -140.029709  5.254323E-02   -3.576426  5.097435E-02   -2.971691  9.602433E-01 -139.767838
  0.609554777  9.451334E-01 -140.104309  5.093283E-02   -3.491361  5.072259E-02   -4.091738  9.621503E-01 -139.881760
  0.610305153  9.452693E-01 -140.282562  5.125724E-02   -4.872597  5.040193E-02   -4.561282  9.605726E-01 -140.022430
  0.611055528  9.448994E-01 -140.563385  5.087251E-02   -3.834902  5.015709E-02   -5.653635  9.608497E-01 -140.239044
  0.611805903  9.454650E-01 -140.607010  5.063331E-02   -5.315094  4.996017E-02   -4.607673  9.604902E-01 -140.428131
  0.612556278  9.432372E-01 -140.791107  5.099648E-02   -4.855108  5.022732E-02   -4.401268  9.608206E-01 -140.594147
  0.613306653  9.456328E-01 -140.974823  5.192688E-02   -4.216992  5.103083E-02   -4.675700  9.603858E-01 -140.646713
  0.614057029  9.452721E-01 -141.214081  5.216514E-02   -4.582262  5.058552E-02   -4.531320  9.607562E-01 -140.962509
  0.614807404  9.436615E-01 -141.348572  5.129687E-02   -4.851392  5.063525E-02   -3.776452  9.604426E-01 -141.129852
  0.615557779  9.456135E-01 -141.540024  5.122796E-02   -4.110262  5.124935E-02   -4.766663  9.593577E-01 -141.335449
  0.616308154  9.452173E-01 -141.797409  5.137918E-02   -4.110677  5.131520E-02   -4.132289  9.596739E-01 -141.360046
