! Anritsu VNA Master:                         Model: MS2036C/2
! SN:                                  2120025
! /bd0/50.s2p
! Existing Calibration Information:
! TYPE:                         Current Settings,       Active Cal Settings
! TIME:             	   03/24/2026 03:09:40 AM,    03/18/2026 10:00:30 PM
! INTERNAL TEMP:    	                   49.5 C,                    42.3 C
! # POINTS:         	                     2000,                      2000
! START FREQ:       	              500.000 MHz,               500.000 MHz
! STOP FREQ:        	                2.000 GHz,                 2.000 GHz
! SOURCE POWER:     	                     High,                      High
! IFBW:             	                   10 kHz,                    10 kHz
! AVG FACTOR:       	                       1 ,                        1 
! REF PLANE 1:      	                     0 mm,                      0 mm
! REF PLANE 2:      	                     0 mm,                      0 mm
! CAL TYPE:         	              Full 2 Port,               Full 2 Port
! CAL METHOD:       	                     SOLT,                      SOLT
! CAL LINE TYPE:    	                     Coax,                      Coax
! DUT PORT 1:       	                N-Conn(M),                 N-Conn(M)
! DUT PORT 2:       	                N-Conn(M),                 N-Conn(M)
! CAL STATUS:       	?T: Accuracy moderate (|Temp diff| > 5.0 C),                        --
# GHZ S MA R 50.0
! FREQ.GHZ       S11M         S11A         S21M         S21A         S12M         S12A         S22M         S22A
  0.500000000  9.306648E-01 -109.756073  4.350037E-02   19.164408  4.297210E-02   20.045807  9.726749E-01 -113.365555
  0.500750375  9.307452E-01 -109.812584  4.392103E-02   19.726921  4.249541E-02   19.385103  9.728978E-01 -113.524017
  0.501500750  9.301730E-01 -110.001389  4.420504E-02   20.002464  4.279289E-02   18.869064  9.733420E-01 -113.579155
  0.502251126  9.300165E-01 -110.174469  4.394060E-02   18.613535  4.268905E-02   18.221928  9.730729E-01 -113.794083
  0.503001501  9.283483E-01 -110.389580  4.384572E-02   19.028238  4.225782E-02   18.613272  9.732246E-01 -114.044533
  0.503751876  9.293253E-01 -110.544327  4.374553E-02   18.462076  4.187277E-02   18.402020  9.737323E-01 -114.179016
  0.504502251  9.299567E-01 -110.645981  4.337247E-02   17.562960  4.307333E-02   18.475079  9.731999E-01 -114.425392
  0.505252626  9.293659E-01 -110.819633  4.362856E-02   17.817316  4.354873E-02   18.059086  9.730183E-01 -114.463760
  0.506003001  9.301388E-01 -110.944458  4.476076E-02   18.564400  4.252573E-02   16.917570  9.732477E-01 -114.725838
  0.506753377  9.302881E-01 -111.212547  4.471847E-02   18.267128  4.313976E-02   16.249643  9.720551E-01 -114.861992
  0.507503752  9.307255E-01 -111.285057  4.391598E-02   16.660069  4.241506E-02   16.572109  9.723874E-01 -114.970322
  0.508254127  9.305350E-01 -111.478683  4.433795E-02   17.713015  4.332404E-02   16.749825  9.732596E-01 -115.188042
  0.509004502  9.290084E-01 -111.662773  4.370826E-02   17.486494  4.388620E-02   16.432537  9.738740E-01 -115.266190
  0.509754877  9.307247E-01 -111.798462  4.477720E-02   18.106300  4.260365E-02   16.277967  9.723821E-01 -115.533485
  0.510505253  9.310181E-01 -111.981911  4.483521E-02   16.623209  4.263683E-02   16.687454  9.722961E-01 -115.742188
  0.511255628  9.303502E-01 -112.144188  4.410337E-02   16.135550  4.303262E-02   15.621809  9.732421E-01 -115.822998
  0.512006003  9.298250E-01 -112.274506  4.296261E-02   16.947222  4.310581E-02   15.677425  9.730169E-01 -116.061691
  0.512756378  9.304060E-01 -112.495667  4.389881E-02   15.798674  4.261350E-02   15.051249  9.715966E-01 -116.161003
  0.513506753  9.292927E-01 -112.647041  4.495391E-02   14.610664  4.295837E-02   16.188747  9.717616E-01 -116.359428
  0.514257129  9.294098E-01 -112.767319  4.387592E-02   15.446981  4.351737E-02   15.753042  9.728180E-01 -116.540268
  0.515007504  9.310966E-01 -113.044838  4.448245E-02   15.661373  4.304791E-02   16.746042  9.727298E-01 -116.709831
  0.515757879  9.310721E-01 -113.027763  4.441386E-02   15.427201  4.274986E-02   14.739884  9.723408E-01 -116.786491
  0.516508254  9.297348E-01 -113.204391  4.388438E-02   14.934570  4.364790E-02   13.042547  9.713857E-01 -117.079277
  0.517258629  9.295930E-01 -113.475052  4.396423E-02   13.988705  4.335916E-02   15.516825  9.712760E-01 -117.269318
  0.518009005  9.299632E-01 -113.683205  4.457441E-02   12.458429  4.275681E-02   14.076512  9.709155E-01 -117.369560
  0.518759380  9.309879E-01 -113.749374  4.317830E-02   15.026288  4.297145E-02   13.322646  9.700831E-01 -117.630211
  0.519509755  9.292556E-01 -113.786606  4.490264E-02   13.606037  4.264406E-02   13.444629  9.709498E-01 -117.750710
  0.520260130  9.304567E-01 -114.135971  4.347958E-02   13.733609  4.232563E-02   13.469038  9.707680E-01 -117.929169
  0.521010505  9.291824E-01 -114.239677  4.398629E-02   13.679849  4.324999E-02   14.243675  9.714401E-01 -118.135719
  0.521760880  9.293658E-01 -114.438515  4.349455E-02   12.563474  4.341076E-02   13.405899  9.717487E-01 -118.336128
  0.522511256  9.294411E-01 -114.617531  4.311280E-02   13.425139  4.307844E-02   13.753921  9.708868E-01 -118.453331
  0.523261631  9.289944E-01 -114.715065  4.376328E-02   13.025790  4.373712E-02   13.300790  9.707177E-01 -118.656372
  0.524012006  9.291183E-01 -114.957512  4.277591E-02   14.011554  4.318758E-02   12.746886  9.716416E-01 -118.791199
  0.524762381  9.289477E-01 -115.169556  4.341892E-02   14.581074  4.258794E-02   14.652955  9.718832E-01 -118.964127
  0.525512756  9.283097E-01 -115.246452  4.380277E-02   13.059814  4.287048E-02   11.913956  9.714226E-01 -119.170753
  0.526263132  9.291186E-01 -115.448502  4.382453E-02   12.366503  4.309231E-02   11.979779  9.701054E-01 -119.276466
  0.527013507  9.286644E-01 -115.624245  4.378675E-02   12.686802  4.317289E-02   12.086265  9.690666E-01 -119.416389
  0.527763882  9.286475E-01 -115.717773  4.296223E-02   12.009640  4.316849E-02   12.345280  9.696812E-01 -119.716537
  0.528514257  9.278167E-01 -115.893745  4.319005E-02   11.808028  4.308121E-02   12.379661  9.698422E-01 -119.877007
  0.529264632  9.291779E-01 -116.087860  4.273579E-02   11.690490  4.302647E-02   13.432167  9.687220E-01 -120.032379
  0.530015008  9.279070E-01 -116.255806  4.274120E-02   12.042482  4.263629E-02   12.081712  9.693184E-01 -120.133232
  0.530765383  9.284589E-01 -116.414375  4.364838E-02   12.269503  4.351115E-02   11.606182  9.686344E-01 -120.412437
  0.531515758  9.273999E-01 -116.694031  4.353746E-02   12.715533  4.310926E-02   12.477250  9.694447E-01 -120.646744
  0.532266133  9.277470E-01 -116.763382  4.259436E-02   12.308420  4.287667E-02   12.497660  9.688591E-01 -120.816635
  0.533016508  9.280803E-01 -116.984711  4.303067E-02   13.308300  4.238288E-02   12.532078  9.687592E-01 -120.983322
  0.533766883  9.277621E-01 -117.107681  4.403035E-02   12.008042  4.294614E-02   11.607136  9.694437E-01 -121.106491
  0.534517259  9.276952E-01 -117.308334  4.342617E-02   11.938326  4.357899E-02   13.541631  9.681917E-01 -121.390205
  0.535267634  9.274830E-01 -117.499802  4.320175E-02   13.116160  4.221559E-02   11.683722  9.695393E-01 -121.645058
  0.536018009  9.268344E-01 -117.694580  4.278388E-02   12.857130  4.354305E-02   11.198490  9.687448E-01 -121.708206
  0.536768384  9.266849E-01 -117.882195  4.396448E-02   12.007823  4.410446E-02   12.524016  9.680503E-01 -121.911789
  0.537518759  9.274001E-01 -118.013504  4.313651E-02   12.639774  4.326065E-02   12.010203  9.677742E-01 -122.102524
  0.538269135  9.263150E-01 -118.200989  4.223745E-02   13.051810  4.311509E-02   13.547267  9.676734E-01 -122.285736
  0.539019510  9.258939E-01 -118.410301  4.260199E-02   12.664550  4.359921E-02   11.134665  9.670629E-01 -122.503471
  0.539769885  9.257878E-01 -118.513115  4.260776E-02   12.593392  4.225603E-02   12.341750  9.684197E-01 -122.651398
  0.540520260  9.262255E-01 -118.684822  4.345037E-02   12.521473  4.312749E-02   12.109737  9.671659E-01 -122.850418
  0.541270635  9.260100E-01 -118.858994  4.343745E-02   11.543797  4.304074E-02   11.873864  9.679975E-01 -123.009018
  0.542021011  9.254023E-01 -119.084061  4.316745E-02   12.797668  4.230619E-02   12.336687  9.675297E-01 -123.206955
  0.542771386  9.251538E-01 -119.391006  4.376487E-02   11.182315  4.233121E-02    9.624363  9.667962E-01 -123.415138
  0.543521761  9.257149E-01 -119.499023  4.391394E-02   12.126174  4.333173E-02   11.333180  9.673011E-01 -123.597488
  0.544272136  9.252350E-01 -119.599777  4.333621E-02   12.762186  4.345736E-02   11.803812  9.677442E-01 -123.743599
  0.545022511  9.238306E-01 -119.875954  4.371002E-02   11.383210  4.396154E-02   12.121481  9.662861E-01 -124.018929
  0.545772886  9.239623E-01 -120.075912  4.337768E-02   13.020018  4.322820E-02   12.008025  9.671085E-01 -124.173805
  0.546523262  9.239232E-01 -120.247375  4.348356E-02   12.918765  4.398141E-02   12.143318  9.669029E-01 -124.404572
  0.547273637  9.231351E-01 -120.540955  4.394440E-02   12.013857  4.343092E-02   11.253389  9.665962E-01 -124.555031
  0.548024012  9.229778E-01 -120.590340  4.367183E-02   11.542092  4.429575E-02   11.486413  9.673203E-01 -124.766914
  0.548774387  9.234812E-01 -120.752266  4.349423E-02   12.954696  4.441694E-02   12.058334  9.669715E-01 -124.937523
  0.549524762  9.223865E-01 -120.925812  4.429704E-02   11.748207  4.368873E-02   10.309436  9.667882E-01 -125.164627
  0.550275138  9.245132E-01 -121.183784  4.405702E-02   12.324513  4.564937E-02   13.251350  9.662265E-01 -125.313416
  0.551025513  9.234835E-01 -121.370949  4.472438E-02   12.252155  4.438836E-02   10.549986  9.660535E-01 -125.582359
  0.551775888  9.228281E-01 -121.513817  4.419930E-02   12.805372  4.521489E-02   11.896180  9.661991E-01 -125.704308
  0.552526263  9.222282E-01 -121.742302  4.476263E-02   11.756615  4.488296E-02   11.432731  9.655546E-01 -125.861877
  0.553276638  9.228607E-01 -121.965691  4.441124E-02   11.771017  4.431820E-02   10.367162  9.660183E-01 -126.073616
  0.554027014  9.230295E-01 -122.155731  4.551306E-02   12.497215  4.415733E-02   10.439390  9.659173E-01 -126.314743
  0.554777389  9.212469E-01 -122.309753  4.464645E-02   12.181459  4.458892E-02   11.883492  9.660152E-01 -126.481346
  0.555527764  9.216753E-01 -122.543373  4.488166E-02   11.659940  4.492368E-02   11.262334  9.659432E-01 -126.635002
  0.556278139  9.211137E-01 -122.734322  4.542472E-02   12.083302  4.540997E-02   10.627862  9.655083E-01 -126.805534
  0.557028514  9.211554E-01 -122.923859  4.515978E-02   11.412993  4.514310E-02   12.353302  9.662967E-01 -127.020866
  0.557778889  9.217221E-01 -123.146736  4.572628E-02   12.549046  4.523601E-02   11.839952  9.648725E-01 -127.098907
  0.558529265  9.202185E-01 -123.275650  4.454188E-02   12.104939  4.514814E-02   11.853489  9.643202E-01 -127.464813
  0.559279640  9.199991E-01 -123.496742  4.700025E-02   12.233367  4.571380E-02   10.091317  9.646588E-01 -127.564865
  0.560030015  9.197803E-01 -123.682938  4.601083E-02   11.044847  4.620474E-02   11.308510  9.650682E-01 -127.719864
  0.560780390  9.199026E-01 -123.845741  4.770581E-02   11.643730  4.590400E-02    9.156981  9.649796E-01 -127.873611
  0.561530765  9.199052E-01 -124.153511  4.614823E-02   11.957422  4.538195E-02   10.833046  9.645227E-01 -128.165771
  0.562281141  9.199050E-01 -124.298019  4.652865E-02   12.341043  4.712171E-02   10.799050  9.650867E-01 -128.249908
  0.563031516  9.199415E-01 -124.513191  4.780316E-02   11.570110  4.576679E-02   10.559040  9.646858E-01 -128.459335
  0.563781891  9.191786E-01 -124.681839  4.671241E-02   11.721492  4.615618E-02   10.302627  9.648505E-01 -128.668518
  0.564532266  9.181228E-01 -124.917793  4.708234E-02   11.469131  4.638710E-02   10.818127  9.643370E-01 -128.948578
  0.565282641  9.192191E-01 -125.063225  4.673592E-02   11.013170  4.684264E-02    9.463807  9.650140E-01 -129.096863
  0.566033017  9.178447E-01 -125.225342  4.701778E-02   10.452859  4.783944E-02   10.222787  9.647787E-01 -129.269669
  0.566783392  9.186037E-01 -125.467606  4.885817E-02   10.336164  4.666525E-02    9.446077  9.645572E-01 -129.407455
  0.567533767  9.172699E-01 -125.638580  4.739065E-02   10.677557  4.609639E-02    7.838344  9.642647E-01 -129.631287
  0.568284142  9.174796E-01 -125.939888  4.843909E-02   10.929863  4.780903E-02   10.771808  9.645306E-01 -129.753220
  0.569034517  9.170575E-01 -126.009903  4.858680E-02   10.734964  4.788543E-02    9.738510  9.632888E-01 -129.889206
  0.569784892  9.168105E-01 -126.262566  4.823372E-02    8.935089  4.767238E-02   10.179924  9.640586E-01 -130.191360
  0.570535268  9.173346E-01 -126.402199  4.852783E-02    9.408001  4.805440E-02    9.201841  9.640188E-01 -130.320541
  0.571285643  9.174189E-01 -126.634865  4.926983E-02    9.450003  4.887854E-02    9.138769  9.645450E-01 -130.475098
  0.572036018  9.166476E-01 -126.807762  4.954571E-02   10.265572  4.883154E-02    8.371025  9.650798E-01 -130.619476
  0.572786393  9.162696E-01 -127.012299  4.936058E-02    8.901287  4.899631E-02    9.328783  9.654453E-01 -130.873917
  0.573536768  9.165432E-01 -127.189461  4.993144E-02    9.141954  4.843329E-02    9.463061  9.618782E-01 -130.971359
  0.574287144  9.172149E-01 -127.383942  4.905692E-02    8.623705  4.735813E-02    7.928818  9.643147E-01 -131.318726
  0.575037519  9.172815E-01 -127.641098  4.936199E-02    9.795136  4.815458E-02    7.615027  9.637229E-01 -131.388153
  0.575787894  9.168618E-01 -127.739281  5.035271E-02    7.593884  4.891346E-02    7.915742  9.644570E-01 -131.559555
  0.576538269  9.161716E-01 -128.005585  4.910944E-02    7.878440  4.880916E-02    6.883874  9.635227E-01 -131.745285
  0.577288644  9.155976E-01 -128.163116  5.048879E-02    7.457720  4.876504E-02    7.378825  9.631753E-01 -131.951508
  0.578039020  9.156977E-01 -128.310181  4.967897E-02    7.644064  4.876174E-02    6.365725  9.651920E-01 -132.158249
  0.578789395  9.153587E-01 -128.563126  4.964294E-02    6.657379  4.864626E-02    7.445546  9.629894E-01 -132.327026
  0.579539770  9.158172E-01 -128.736969  5.067626E-02    5.874913  4.905693E-02    6.444975  9.636640E-01 -132.429077
  0.580290145  9.154382E-01 -128.950653  5.040937E-02    7.445052  4.870040E-02    5.990030  9.642932E-01 -132.656448
  0.581040520  9.161721E-01 -129.129852  5.147559E-02    6.871843  4.964024E-02    5.702266  9.651652E-01 -132.766754
  0.581790895  9.139943E-01 -129.347046  5.006359E-02    6.612989  4.910360E-02    6.198818  9.649640E-01 -132.971619
  0.582541271  9.166518E-01 -129.540085  5.118863E-02    6.091588  4.936690E-02    5.612892  9.645854E-01 -133.184677
  0.583291646  9.152315E-01 -129.643188  5.126084E-02    5.882570  4.953919E-02    4.606045  9.649732E-01 -133.352448
  0.584042021  9.152551E-01 -129.853012  5.119054E-02    6.206423  4.855591E-02    6.162783  9.651288E-01 -133.569519
  0.584792396  9.161305E-01 -130.066864  5.125451E-02    5.335949  4.897512E-02    5.181355  9.643342E-01 -133.686142
  0.585542771  9.155402E-01 -130.239059  5.083295E-02    6.073763  5.087472E-02    5.378887  9.646042E-01 -133.874008
  0.586293147  9.155195E-01 -130.376556  5.026499E-02    5.402572  4.923102E-02    5.282938  9.651704E-01 -134.077057
  0.587043522  9.146773E-01 -130.587509  5.072484E-02    4.875581  4.997522E-02    4.400380  9.663914E-01 -134.234619
  0.587793897  9.143933E-01 -130.740143  5.029251E-02    4.472008  4.926438E-02    3.962740  9.654332E-01 -134.450928
  0.588544272  9.156684E-01 -130.874390  5.045044E-02    3.552414  4.919852E-02    3.992791  9.649189E-01 -134.592590
  0.589294647  9.158219E-01 -131.084763  5.193052E-02    4.199306  4.898899E-02    3.617222  9.653025E-01 -134.770630
  0.590045023  9.147350E-01 -131.310120  5.144000E-02    3.912720  4.935502E-02    3.404806  9.642853E-01 -134.894836
  0.590795398  9.138599E-01 -131.454239  5.188492E-02    2.866508  4.955317E-02    2.800358  9.641566E-01 -135.081177
  0.591545773  9.153271E-01 -131.569138  5.122899E-02    4.874584  4.947336E-02    3.027838  9.648379E-01 -135.205673
  0.592296148  9.145425E-01 -131.722534  5.084479E-02    3.120533  5.051213E-02    2.620778  9.650481E-01 -135.410553
  0.593046523  9.155230E-01 -131.943390  5.109441E-02    3.102847  5.006875E-02    2.956679  9.647020E-01 -135.574448
  0.593796898  9.146169E-01 -132.111191  5.176513E-02    2.768756  5.049581E-02    3.108768  9.652022E-01 -135.823792
  0.594547274  9.140312E-01 -132.322342  5.129759E-02    2.587229  4.851242E-02    3.558215  9.654899E-01 -135.829193
  0.595297649  9.145006E-01 -132.523239  5.123800E-02    3.782358  5.124746E-02    1.906042  9.642988E-01 -136.048660
  0.596048024  9.145080E-01 -132.753860  5.121846E-02    2.479769  5.053633E-02    2.585190  9.650656E-01 -136.189026
  0.596798399  9.138094E-01 -132.854996  5.086708E-02    1.967377  4.929432E-02    1.754808  9.651324E-01 -136.357956
  0.597548774  9.152167E-01 -132.983032  5.133544E-02    1.655750  4.926246E-02    2.222653  9.654588E-01 -136.584122
  0.598299150  9.147782E-01 -133.205093  5.121114E-02    0.787685  4.945606E-02    3.110529  9.647858E-01 -136.742798
  0.599049525  9.138417E-01 -133.355560  5.114970E-02    2.042639  4.960812E-02    1.302373  9.660564E-01 -136.958450
  0.599799900  9.152940E-01 -133.477158  5.198691E-02    2.926816  4.992285E-02    1.978189  9.643064E-01 -137.085266
  0.600550275  9.140176E-01 -133.659027  5.037702E-02    1.981527  5.015258E-02    2.253360  9.658749E-01 -137.283249
  0.601300650  9.122824E-01 -133.898926  5.053269E-02    1.150524  4.992517E-02    1.812220  9.650154E-01 -137.394730
  0.602051026  9.141341E-01 -134.063309  5.027427E-02    0.480920  5.011737E-02    2.137436  9.643506E-01 -137.592422
  0.602801401  9.141992E-01 -134.239548  5.064983E-02    0.064869  4.965958E-02    1.402745  9.649888E-01 -137.859589
  0.603551776  9.128463E-01 -134.422134  5.070183E-02    0.666891  4.946341E-02    1.208975  9.636757E-01 -137.981827
  0.604302151  9.128138E-01 -134.611816  5.065954E-02    1.812148  4.879409E-02    1.204949  9.655504E-01 -138.124954
  0.605052526  9.138921E-01 -134.737869  5.055876E-02    0.271024  4.998665E-02    1.215831  9.645644E-01 -138.355072
  0.605802901  9.137889E-01 -134.908539  5.199232E-02    0.424049  4.994201E-02   -0.707992  9.644983E-01 -138.481033
  0.606553277  9.131043E-01 -135.087097  5.113332E-02    1.525361  4.929852E-02    1.058982  9.645219E-01 -138.655319
  0.607303652  9.142215E-01 -135.166229  5.116444E-02    0.136963  4.898505E-02    0.617656  9.640250E-01 -138.875336
  0.608054027  9.134668E-01 -135.462555  4.998013E-02    1.464992  4.948634E-02    0.931514  9.642022E-01 -138.926620
  0.608804402  9.135120E-01 -135.596558  5.220929E-02    0.889642  5.037089E-02    0.408778  9.641536E-01 -139.076782
  0.609554777  9.137301E-01 -135.742218  5.067031E-02   -0.167043  4.977508E-02   -0.442124  9.640220E-01 -139.284500
  0.610305153  9.133866E-01 -135.914978  5.011620E-02    0.413023  5.094432E-02    0.167418  9.640217E-01 -139.472015
  0.611055528  9.141410E-01 -136.116852  5.055068E-02    0.103737  5.019780E-02    1.247638  9.627057E-01 -139.618805
  0.611805903  9.133968E-01 -136.366058  5.072455E-02   -0.140747  4.965903E-02    1.261326  9.638357E-01 -139.712326
  0.612556278  9.118278E-01 -136.420502  5.143759E-02    0.436989  4.980556E-02    0.088639  9.644860E-01 -139.939789
  0.613306653  9.135666E-01 -136.640152  5.024102E-02    0.513140  5.044513E-02   -0.064294  9.617493E-01 -140.187057
  0.614057029  9.129924E-01 -136.877640  5.120044E-02   -0.073653  5.029079E-02    0.920417  9.616282E-01 -140.327026
  0.614807404  9.128886E-01 -137.026657  5.007232E-02    0.123720  5.079509E-02   -0.997199  9.623528E-01 -140.474823
  0.615557779  9.134495E-01 -137.162048  5.061908E-02    0.811901  4.957764E-02   -0.590991  9.613864E-01 -140.690735
  0.616308154  9.117911E-01 -137.419342  5.156583E-02   -1.307834  5.026652E-02   -0.550434  9.623219E-01 -140.906769
