! Anritsu VNA Master:                         Model: MS2036C/2
! SN:                                  2120025
! /bd0/50.s2p
! Existing Calibration Information:
! TYPE:                         Current Settings,       Active Cal Settings
! TIME:             	   03/24/2026 03:09:40 AM,    03/18/2026 10:00:30 PM
! INTERNAL TEMP:    	                   49.5 C,                    42.3 C
! # POINTS:         	                     2000,                      2000
! START FREQ:       	              500.000 MHz,               500.000 MHz
! STOP FREQ:        	                2.000 GHz,                 2.000 GHz
! SOURCE POWER:     	                     High,                      High
! IFBW:             	                   10 kHz,                    10 kHz
! AVG FACTOR:       	                       1 ,                        1 
! REF PLANE 1:      	                     0 mm,                      0 mm
! REF PLANE 2:      	                     0 mm,                      0 mm
! CAL TYPE:         	              Full 2 Port,               Full 2 Port
! CAL METHOD:       	                     SOLT,                      SOLT
! CAL LINE TYPE:    	                     Coax,                      Coax
! DUT PORT 1:       	                N-Conn(M),                 N-Conn(M)
! DUT PORT 2:       	                N-Conn(M),                 N-Conn(M)
! CAL STATUS:       	?T: Accuracy moderate (|Temp diff| > 5.0 C),                        --
# GHZ S MA R 50.0
! FREQ.GHZ       S11M         S11A         S21M         S21A         S12M         S12A         S22M         S22A
5.000000e-01 9.335951e-01 -1.097012e+02 4.384366e-02 2.067189e+01 4.299338e-02 1.970907e+01 9.728485e-01 -1.133395e+02
5.007504e-01 9.329222e-01 -1.098227e+02 4.376833e-02 1.948556e+01 4.221258e-02 1.991644e+01 9.726625e-01 -1.135136e+02
5.015008e-01 9.327660e-01 -1.099966e+02 4.379178e-02 1.968551e+01 4.272157e-02 1.889777e+01 9.729081e-01 -1.135947e+02
5.022511e-01 9.330624e-01 -1.102012e+02 4.384568e-02 1.841808e+01 4.268237e-02 1.849599e+01 9.726533e-01 -1.138179e+02
5.030015e-01 9.320230e-01 -1.103578e+02 4.326418e-02 1.962861e+01 4.276025e-02 1.881998e+01 9.735179e-01 -1.139945e+02
5.037519e-01 9.319386e-01 -1.105373e+02 4.360166e-02 1.960716e+01 4.272102e-02 1.822511e+01 9.732881e-01 -1.141742e+02
5.045023e-01 9.323152e-01 -1.106550e+02 4.376995e-02 1.813665e+01 4.279442e-02 1.827311e+01 9.730246e-01 -1.143929e+02
5.052526e-01 9.321504e-01 -1.108072e+02 4.334083e-02 1.893350e+01 4.349401e-02 1.813044e+01 9.730372e-01 -1.144580e+02
5.060030e-01 9.329746e-01 -1.109818e+02 4.439303e-02 1.845317e+01 4.311083e-02 1.692064e+01 9.733261e-01 -1.146975e+02
5.067534e-01 9.326931e-01 -1.111848e+02 4.450711e-02 1.845994e+01 4.330750e-02 1.716419e+01 9.720599e-01 -1.148416e+02
5.075038e-01 9.328035e-01 -1.113025e+02 4.383371e-02 1.726689e+01 4.304413e-02 1.670446e+01 9.726507e-01 -1.149750e+02
5.082541e-01 9.330095e-01 -1.115043e+02 4.431217e-02 1.755513e+01 4.331406e-02 1.693872e+01 9.732435e-01 -1.151830e+02
5.090045e-01 9.319302e-01 -1.116881e+02 4.382100e-02 1.712319e+01 4.346920e-02 1.622264e+01 9.729756e-01 -1.153132e+02
5.097549e-01 9.329158e-01 -1.118093e+02 4.432518e-02 1.789966e+01 4.315776e-02 1.631694e+01 9.722825e-01 -1.155351e+02
5.105053e-01 9.333012e-01 -1.119993e+02 4.466594e-02 1.700343e+01 4.306852e-02 1.658670e+01 9.718371e-01 -1.157141e+02
5.112556e-01 9.328239e-01 -1.121810e+02 4.405408e-02 1.655950e+01 4.359174e-02 1.517880e+01 9.725246e-01 -1.158274e+02
5.120060e-01 9.325533e-01 -1.122698e+02 4.298485e-02 1.652001e+01 4.351832e-02 1.581960e+01 9.724511e-01 -1.160392e+02
5.127564e-01 9.326562e-01 -1.124797e+02 4.368149e-02 1.549139e+01 4.308602e-02 1.588901e+01 9.717192e-01 -1.161704e+02
5.135068e-01 9.320671e-01 -1.126421e+02 4.469472e-02 1.575337e+01 4.319108e-02 1.578832e+01 9.718090e-01 -1.163254e+02
5.142571e-01 9.323724e-01 -1.127735e+02 4.381993e-02 1.519236e+01 4.298398e-02 1.540599e+01 9.723928e-01 -1.165390e+02
5.150075e-01 9.331947e-01 -1.130128e+02 4.351178e-02 1.611986e+01 4.304595e-02 1.507033e+01 9.720521e-01 -1.167164e+02
5.157579e-01 9.329725e-01 -1.130407e+02 4.406038e-02 1.579303e+01 4.326523e-02 1.528117e+01 9.718620e-01 -1.168474e+02
5.165083e-01 9.324046e-01 -1.132474e+02 4.382541e-02 1.518532e+01 4.347994e-02 1.408582e+01 9.709902e-01 -1.170663e+02
5.172586e-01 9.325324e-01 -1.134275e+02 4.362339e-02 1.418647e+01 4.340056e-02 1.523035e+01 9.717362e-01 -1.172776e+02
5.180090e-01 9.331848e-01 -1.136452e+02 4.457569e-02 1.400951e+01 4.303172e-02 1.382436e+01 9.711323e-01 -1.173506e+02
5.187594e-01 9.333906e-01 -1.137363e+02 4.372627e-02 1.447373e+01 4.320253e-02 1.399187e+01 9.709155e-01 -1.175893e+02
5.195098e-01 9.318456e-01 -1.138149e+02 4.425139e-02 1.395417e+01 4.294099e-02 1.383907e+01 9.708829e-01 -1.177531e+02
5.202601e-01 9.327053e-01 -1.141535e+02 4.373223e-02 1.481771e+01 4.243093e-02 1.395014e+01 9.708893e-01 -1.178970e+02
5.210105e-01 9.322312e-01 -1.142411e+02 4.366543e-02 1.354691e+01 4.352722e-02 1.456286e+01 9.710140e-01 -1.181034e+02
5.217609e-01 9.322485e-01 -1.144788e+02 4.372390e-02 1.338378e+01 4.356338e-02 1.380318e+01 9.710788e-01 -1.183169e+02
5.225113e-01 9.324398e-01 -1.145974e+02 4.379569e-02 1.421957e+01 4.313877e-02 1.347965e+01 9.706881e-01 -1.184481e+02
5.232616e-01 9.319316e-01 -1.147212e+02 4.332848e-02 1.248951e+01 4.380453e-02 1.312921e+01 9.707919e-01 -1.186017e+02
5.240120e-01 9.315969e-01 -1.149348e+02 4.313234e-02 1.407180e+01 4.285719e-02 1.330955e+01 9.711995e-01 -1.187696e+02
5.247624e-01 9.312547e-01 -1.151310e+02 4.326150e-02 1.347991e+01 4.314651e-02 1.345571e+01 9.708291e-01 -1.189698e+02
5.255128e-01 9.316612e-01 -1.152905e+02 4.419714e-02 1.334330e+01 4.279884e-02 1.264795e+01 9.703920e-01 -1.191663e+02
5.262631e-01 9.320616e-01 -1.154159e+02 4.376262e-02 1.267440e+01 4.332701e-02 1.233827e+01 9.702834e-01 -1.192871e+02
5.270135e-01 9.314951e-01 -1.155847e+02 4.356982e-02 1.317625e+01 4.319790e-02 1.253784e+01 9.698756e-01 -1.194778e+02
5.277639e-01 9.314848e-01 -1.157201e+02 4.320051e-02 1.317018e+01 4.310251e-02 1.263946e+01 9.700204e-01 -1.197243e+02
5.285143e-01 9.307343e-01 -1.158976e+02 4.328467e-02 1.240397e+01 4.335424e-02 1.259308e+01 9.694597e-01 -1.198703e+02
5.292646e-01 9.309741e-01 -1.160709e+02 4.338393e-02 1.187602e+01 4.319324e-02 1.362159e+01 9.689835e-01 -1.200327e+02
5.300150e-01 9.302362e-01 -1.162384e+02 4.308956e-02 1.280653e+01 4.299407e-02 1.247487e+01 9.691794e-01 -1.201733e+02
5.307654e-01 9.309230e-01 -1.163932e+02 4.349735e-02 1.263845e+01 4.280636e-02 1.167387e+01 9.685982e-01 -1.204068e+02
5.315158e-01 9.309166e-01 -1.166412e+02 4.357035e-02 1.279818e+01 4.346020e-02 1.291124e+01 9.691354e-01 -1.206057e+02
5.322661e-01 9.306984e-01 -1.168019e+02 4.329353e-02 1.220461e+01 4.330404e-02 1.293855e+01 9.688781e-01 -1.207869e+02
5.330165e-01 9.304616e-01 -1.169907e+02 4.337901e-02 1.224800e+01 4.314746e-02 1.217419e+01 9.684880e-01 -1.209906e+02
5.337669e-01 9.301427e-01 -1.170923e+02 4.369165e-02 1.251665e+01 4.295904e-02 1.187403e+01 9.687545e-01 -1.211581e+02
5.345173e-01 9.308212e-01 -1.173355e+02 4.352542e-02 1.230684e+01 4.321944e-02 1.327499e+01 9.684365e-01 -1.213649e+02
5.352676e-01 9.301992e-01 -1.175210e+02 4.290091e-02 1.210301e+01 4.247173e-02 1.254374e+01 9.686708e-01 -1.215918e+02
5.360180e-01 9.292708e-01 -1.177159e+02 4.326425e-02 1.289306e+01 4.291351e-02 1.201109e+01 9.681932e-01 -1.217036e+02
5.367684e-01 9.292506e-01 -1.178894e+02 4.311719e-02 1.163302e+01 4.370488e-02 1.241557e+01 9.678322e-01 -1.219309e+02
5.375188e-01 9.296255e-01 -1.180154e+02 4.309599e-02 1.230999e+01 4.362326e-02 1.174218e+01 9.677598e-01 -1.220713e+02
5.382691e-01 9.290196e-01 -1.182220e+02 4.280163e-02 1.256791e+01 4.323006e-02 1.316344e+01 9.677353e-01 -1.223199e+02
5.390195e-01 9.284925e-01 -1.183922e+02 4.300225e-02 1.246376e+01 4.314316e-02 1.166080e+01 9.667955e-01 -1.224828e+02
5.397699e-01 9.284720e-01 -1.185508e+02 4.304682e-02 1.267292e+01 4.320113e-02 1.191462e+01 9.683395e-01 -1.227009e+02
5.405203e-01 9.287471e-01 -1.187255e+02 4.308707e-02 1.263692e+01 4.350817e-02 1.182303e+01 9.674236e-01 -1.228728e+02
5.412706e-01 9.289731e-01 -1.188904e+02 4.364617e-02 1.214076e+01 4.343467e-02 1.176296e+01 9.670597e-01 -1.230213e+02
5.420210e-01 9.279329e-01 -1.191206e+02 4.324853e-02 1.277324e+01 4.301684e-02 1.188228e+01 9.676106e-01 -1.232205e+02
5.427714e-01 9.280562e-01 -1.193416e+02 4.349926e-02 1.196262e+01 4.296302e-02 1.067883e+01 9.668085e-01 -1.234530e+02
5.435218e-01 9.288737e-01 -1.195173e+02 4.402122e-02 1.199621e+01 4.367779e-02 1.141649e+01 9.667966e-01 -1.235928e+02
5.442721e-01 9.282611e-01 -1.196358e+02 4.353105e-02 1.222394e+01 4.377882e-02 1.199856e+01 9.675907e-01 -1.237714e+02
5.450225e-01 9.272463e-01 -1.198707e+02 4.366022e-02 1.174735e+01 4.391425e-02 1.253849e+01 9.665481e-01 -1.239648e+02
5.457729e-01 9.268532e-01 -1.200760e+02 4.379994e-02 1.281326e+01 4.363854e-02 1.172486e+01 9.666330e-01 -1.241726e+02
5.465233e-01 9.272579e-01 -1.202547e+02 4.391170e-02 1.271242e+01 4.389459e-02 1.175477e+01 9.669325e-01 -1.243823e+02
5.472736e-01 9.262033e-01 -1.204879e+02 4.370936e-02 1.228096e+01 4.336292e-02 1.144717e+01 9.666105e-01 -1.245485e+02
5.480240e-01 9.260519e-01 -1.206097e+02 4.360327e-02 1.179938e+01 4.433394e-02 1.089885e+01 9.668406e-01 -1.247447e+02
5.487744e-01 9.266961e-01 -1.207672e+02 4.396608e-02 1.320108e+01 4.444218e-02 1.211651e+01 9.662609e-01 -1.249462e+02
5.495248e-01 9.256619e-01 -1.209996e+02 4.423623e-02 1.140934e+01 4.402490e-02 1.068549e+01 9.662028e-01 -1.251562e+02
5.502751e-01 9.267928e-01 -1.211798e+02 4.404445e-02 1.203885e+01 4.543460e-02 1.323167e+01 9.658309e-01 -1.253447e+02
5.510255e-01 9.256385e-01 -1.213845e+02 4.428245e-02 1.266142e+01 4.435451e-02 1.111570e+01 9.653270e-01 -1.255589e+02
5.517759e-01 9.253784e-01 -1.215407e+02 4.450768e-02 1.249221e+01 4.472690e-02 1.156931e+01 9.657870e-01 -1.257245e+02
5.525263e-01 9.250297e-01 -1.217424e+02 4.471315e-02 1.162904e+01 4.469601e-02 1.129975e+01 9.651942e-01 -1.258655e+02
5.532766e-01 9.257629e-01 -1.219889e+02 4.486862e-02 1.253471e+01 4.469344e-02 1.138426e+01 9.657216e-01 -1.260689e+02
5.540270e-01 9.258028e-01 -1.221764e+02 4.521580e-02 1.246403e+01 4.478057e-02 1.080504e+01 9.655032e-01 -1.262703e+02
5.547774e-01 9.244754e-01 -1.223410e+02 4.483769e-02 1.257643e+01 4.490356e-02 1.185023e+01 9.656206e-01 -1.264946e+02
5.555278e-01 9.247969e-01 -1.225549e+02 4.483015e-02 1.172325e+01 4.472128e-02 1.131313e+01 9.654592e-01 -1.266560e+02
5.562781e-01 9.236540e-01 -1.227694e+02 4.547187e-02 1.211185e+01 4.543632e-02 1.121896e+01 9.653392e-01 -1.267793e+02
5.570285e-01 9.237149e-01 -1.229564e+02 4.507250e-02 1.140944e+01 4.540185e-02 1.216491e+01 9.652184e-01 -1.270395e+02
5.577789e-01 9.241696e-01 -1.231242e+02 4.528111e-02 1.217806e+01 4.550780e-02 1.211141e+01 9.648135e-01 -1.271674e+02
5.585293e-01 9.229293e-01 -1.232995e+02 4.528918e-02 1.216300e+01 4.559132e-02 1.180348e+01 9.642681e-01 -1.274434e+02
5.592796e-01 9.229283e-01 -1.234928e+02 4.674452e-02 1.183793e+01 4.591724e-02 1.116470e+01 9.650489e-01 -1.276053e+02
5.600300e-01 9.229622e-01 -1.236907e+02 4.605124e-02 1.095959e+01 4.640026e-02 1.152589e+01 9.648804e-01 -1.277979e+02
5.607804e-01 9.224333e-01 -1.238661e+02 4.717639e-02 1.222982e+01 4.553588e-02 9.585292e+00 9.651454e-01 -1.279175e+02
5.615308e-01 9.227789e-01 -1.241135e+02 4.681853e-02 1.170987e+01 4.572680e-02 1.092427e+01 9.642740e-01 -1.281499e+02
5.622811e-01 9.226067e-01 -1.243377e+02 4.654343e-02 1.210535e+01 4.693511e-02 1.130851e+01 9.646568e-01 -1.283019e+02
5.630315e-01 9.226090e-01 -1.245191e+02 4.784442e-02 1.135170e+01 4.655207e-02 1.114836e+01 9.643483e-01 -1.285269e+02
5.637819e-01 9.216853e-01 -1.246839e+02 4.723088e-02 1.134515e+01 4.612574e-02 9.716299e+00 9.645479e-01 -1.286763e+02
5.645323e-01 9.207446e-01 -1.249099e+02 4.744213e-02 1.096469e+01 4.696044e-02 1.011020e+01 9.637562e-01 -1.288845e+02
5.652826e-01 9.220792e-01 -1.250974e+02 4.741713e-02 1.110936e+01 4.737996e-02 1.008872e+01 9.648796e-01 -1.290831e+02
5.660330e-01 9.207899e-01 -1.252626e+02 4.745903e-02 1.051307e+01 4.732273e-02 1.046104e+01 9.645976e-01 -1.292432e+02
5.667834e-01 9.216437e-01 -1.254789e+02 4.828803e-02 1.084915e+01 4.736126e-02 9.996368e+00 9.646297e-01 -1.293944e+02
5.675338e-01 9.200981e-01 -1.256589e+02 4.825238e-02 1.076414e+01 4.641719e-02 8.884230e+00 9.645139e-01 -1.296206e+02
5.682841e-01 9.200432e-01 -1.259259e+02 4.845819e-02 1.070470e+01 4.788137e-02 9.588698e+00 9.640975e-01 -1.297479e+02
5.690345e-01 9.199261e-01 -1.260324e+02 4.849574e-02 1.108220e+01 4.786552e-02 9.996350e+00 9.636243e-01 -1.299136e+02
5.697849e-01 9.196499e-01 -1.262734e+02 4.816461e-02 9.136367e+00 4.728504e-02 9.611049e+00 9.638848e-01 -1.301873e+02
5.705353e-01 9.198303e-01 -1.264295e+02 4.823979e-02 9.437410e+00 4.821351e-02 9.452210e+00 9.643460e-01 -1.303300e+02
5.712856e-01 9.195744e-01 -1.266561e+02 4.920039e-02 9.775271e+00 4.876124e-02 8.849683e+00 9.637368e-01 -1.305228e+02
5.720360e-01 9.192613e-01 -1.268040e+02 4.985729e-02 1.026355e+01 4.849538e-02 8.533513e+00 9.644142e-01 -1.306812e+02
5.727864e-01 9.190999e-01 -1.270200e+02 4.928299e-02 8.570312e+00 4.929318e-02 8.670813e+00 9.653101e-01 -1.308656e+02
5.735368e-01 9.193951e-01 -1.272398e+02 4.988870e-02 9.250648e+00 4.877793e-02 8.493665e+00 9.627345e-01 -1.310149e+02
5.742871e-01 9.195940e-01 -1.274243e+02 4.900246e-02 8.999052e+00 4.789685e-02 7.842285e+00 9.639981e-01 -1.312839e+02
5.750375e-01 9.195670e-01 -1.276539e+02 5.044379e-02 8.609875e+00 4.856104e-02 7.673904e+00 9.640681e-01 -1.314203e+02
5.757879e-01 9.192778e-01 -1.278085e+02 4.977065e-02 8.320369e+00 4.887794e-02 7.806698e+00 9.642067e-01 -1.315245e+02
5.765383e-01 9.188494e-01 -1.280151e+02 4.978475e-02 7.810636e+00 4.851759e-02 6.993477e+00 9.637965e-01 -1.317523e+02
5.772886e-01 9.182486e-01 -1.281463e+02 5.034496e-02 7.409878e+00 4.930444e-02 6.814341e+00 9.635681e-01 -1.319485e+02
5.780390e-01 9.184662e-01 -1.283659e+02 5.000017e-02 7.929600e+00 4.864040e-02 6.788426e+00 9.644663e-01 -1.321801e+02
5.787894e-01 9.184511e-01 -1.285489e+02 5.042414e-02 7.294830e+00 4.905545e-02 7.064005e+00 9.630543e-01 -1.323537e+02
5.795398e-01 9.185473e-01 -1.287720e+02 5.038216e-02 7.034569e+00 4.954715e-02 6.219034e+00 9.643270e-01 -1.324285e+02
5.802901e-01 9.184053e-01 -1.289736e+02 5.069477e-02 7.305397e+00 4.882494e-02 6.660730e+00 9.645125e-01 -1.326545e+02
5.810405e-01 9.187077e-01 -1.291597e+02 5.123688e-02 6.485534e+00 4.959279e-02 6.667732e+00 9.642347e-01 -1.327951e+02
5.817909e-01 9.171277e-01 -1.293385e+02 5.034453e-02 7.053259e+00 4.911268e-02 5.553056e+00 9.647676e-01 -1.329795e+02
5.825413e-01 9.188516e-01 -1.295392e+02 5.058485e-02 5.440803e+00 4.975939e-02 5.842536e+00 9.645471e-01 -1.331677e+02
5.832916e-01 9.184237e-01 -1.296715e+02 5.134271e-02 5.968151e+00 4.948552e-02 5.362611e+00 9.641666e-01 -1.333615e+02
5.840420e-01 9.183269e-01 -1.298785e+02 5.160736e-02 6.060128e+00 4.925625e-02 5.562831e+00 9.649183e-01 -1.335665e+02
5.847924e-01 9.183506e-01 -1.300689e+02 5.100448e-02 5.626691e+00 4.947034e-02 5.291326e+00 9.641297e-01 -1.336665e+02
5.855428e-01 9.184039e-01 -1.302604e+02 5.112708e-02 5.897805e+00 5.018871e-02 4.845230e+00 9.642530e-01 -1.338449e+02
5.862931e-01 9.182139e-01 -1.304134e+02 5.127567e-02 5.023231e+00 4.951456e-02 5.533246e+00 9.646664e-01 -1.340386e+02
5.870435e-01 9.175618e-01 -1.305971e+02 5.088344e-02 4.051264e+00 4.964189e-02 4.772642e+00 9.656183e-01 -1.342039e+02
5.877939e-01 9.173967e-01 -1.307430e+02 5.092953e-02 4.606659e+00 4.960185e-02 3.863373e+00 9.652877e-01 -1.344414e+02
5.885443e-01 9.180938e-01 -1.308940e+02 5.076286e-02 4.010650e+00 4.973530e-02 3.969426e+00 9.650891e-01 -1.345647e+02
5.892946e-01 9.185835e-01 -1.311281e+02 5.172950e-02 4.355588e+00 4.976088e-02 3.853334e+00 9.655524e-01 -1.347675e+02
5.900450e-01 9.177262e-01 -1.313026e+02 5.116127e-02 3.784223e+00 5.006421e-02 3.556489e+00 9.649462e-01 -1.349188e+02
5.907954e-01 9.172266e-01 -1.314773e+02 5.119915e-02 3.747815e+00 4.959489e-02 3.201557e+00 9.646693e-01 -1.350810e+02
5.915458e-01 9.178073e-01 -1.315667e+02 5.117219e-02 4.404680e+00 4.989534e-02 3.147855e+00 9.643096e-01 -1.352147e+02
5.922961e-01 9.171726e-01 -1.317632e+02 5.125575e-02 3.180357e+00 5.024805e-02 2.815652e+00 9.648218e-01 -1.354213e+02
5.930465e-01 9.177123e-01 -1.319791e+02 5.082371e-02 3.597690e+00 5.008643e-02 3.157117e+00 9.645274e-01 -1.355596e+02
5.937969e-01 9.176991e-01 -1.320949e+02 5.188123e-02 3.486537e+00 4.996647e-02 3.246538e+00 9.650745e-01 -1.357783e+02
5.945473e-01 9.167427e-01 -1.323802e+02 5.162946e-02 2.656975e+00 4.890435e-02 2.405135e+00 9.652117e-01 -1.358534e+02
5.952976e-01 9.169198e-01 -1.325547e+02 5.187445e-02 2.466845e+00 5.093364e-02 2.378006e+00 9.642269e-01 -1.360762e+02
5.960480e-01 9.168459e-01 -1.327425e+02 5.120655e-02 2.734298e+00 5.028122e-02 2.491686e+00 9.657292e-01 -1.362143e+02
5.967984e-01 9.166391e-01 -1.328590e+02 5.116676e-02 1.778884e+00 4.942040e-02 2.337848e+00 9.645809e-01 -1.363602e+02
5.975488e-01 9.177093e-01 -1.330098e+02 5.150036e-02 2.169872e+00 4.998012e-02 2.237500e+00 9.649163e-01 -1.366179e+02
5.982992e-01 9.172667e-01 -1.332264e+02 5.130171e-02 1.866322e+00 4.958468e-02 3.116474e+00 9.649593e-01 -1.367419e+02
5.990495e-01 9.165372e-01 -1.333314e+02 5.100438e-02 1.230641e+00 5.024322e-02 1.512972e+00 9.655269e-01 -1.369586e+02
5.997999e-01 9.175909e-01 -1.335214e+02 5.217402e-02 2.032665e+00 4.956327e-02 1.521271e+00 9.644883e-01 -1.371098e+02
6.005503e-01 9.167575e-01 -1.337063e+02 5.076685e-02 1.471045e+00 5.002149e-02 1.451872e+00 9.655900e-01 -1.372894e+02
6.013006e-01 9.157066e-01 -1.339282e+02 5.089822e-02 1.089599e+00 4.984974e-02 1.457301e+00 9.639939e-01 -1.373741e+02
6.020510e-01 9.166787e-01 -1.340390e+02 5.099131e-02 1.241106e+00 4.975301e-02 1.329350e+00 9.638918e-01 -1.375960e+02
6.028014e-01 9.167789e-01 -1.342482e+02 5.103364e-02 1.192464e+00 4.922508e-02 1.732114e+00 9.648898e-01 -1.378235e+02
6.035518e-01 9.156766e-01 -1.344677e+02 5.109515e-02 1.272557e+00 5.002363e-02 1.172812e+00 9.636898e-01 -1.379697e+02
6.043022e-01 9.162784e-01 -1.346143e+02 5.023320e-02 1.789155e+00 4.971262e-02 1.252839e+00 9.654738e-01 -1.381545e+02
6.050525e-01 9.169046e-01 -1.347339e+02 5.091776e-02 5.005075e-01 5.049528e-02 1.072657e+00 9.640262e-01 -1.383089e+02
6.058029e-01 9.166807e-01 -1.349068e+02 5.120376e-02 1.232997e+00 5.000163e-02 2.227120e-01 9.647151e-01 -1.384355e+02
6.065533e-01 9.156688e-01 -1.351213e+02 5.108171e-02 9.752995e-01 5.002355e-02 1.094880e+00 9.647341e-01 -1.386408e+02
6.073037e-01 9.166201e-01 -1.352317e+02 5.195226e-02 5.211340e-01 4.903333e-02 7.102930e-01 9.639496e-01 -1.388542e+02
6.080540e-01 9.165627e-01 -1.354465e+02 4.983864e-02 1.017314e+00 4.941828e-02 1.040417e+00 9.642584e-01 -1.389475e+02
6.088044e-01 9.168025e-01 -1.356389e+02 5.166845e-02 9.100400e-02 5.017351e-02 5.299365e-01 9.640682e-01 -1.390921e+02
6.095548e-01 9.166434e-01 -1.357834e+02 5.065572e-02 -5.735850e-02 4.983266e-02 3.475310e-01 9.638152e-01 -1.392623e+02
6.103052e-01 9.166081e-01 -1.359266e+02 5.052753e-02 4.090175e-01 5.059415e-02 7.245485e-01 9.640163e-01 -1.394627e+02
6.110555e-01 9.166302e-01 -1.361305e+02 5.071264e-02 3.468565e-01 5.002457e-02 4.899780e-01 9.625225e-01 -1.396198e+02
6.118059e-01 9.162950e-01 -1.363202e+02 5.100580e-02 3.944135e-01 5.014812e-02 1.364207e+00 9.634356e-01 -1.397530e+02
6.125563e-01 9.145359e-01 -1.364505e+02 5.075759e-02 8.239785e-01 5.006174e-02 2.817490e-01 9.631725e-01 -1.399650e+02
6.133067e-01 9.160399e-01 -1.366812e+02 5.015696e-02 2.482145e-01 5.016137e-02 5.075700e-02 9.622000e-01 -1.401635e+02
6.140570e-01 9.158107e-01 -1.368929e+02 5.123822e-02 4.123770e-01 5.044050e-02 1.280035e-01 9.619140e-01 -1.403522e+02
6.148074e-01 9.153192e-01 -1.370355e+02 5.074912e-02 -5.229825e-01 5.094239e-02 -4.026215e-01 9.623331e-01 -1.404918e+02
